Debug: 26 599 log.c:237 handle_log_output_command(): set log_output to "log2024.txt"
Info : 27 599 server.c:297 add_service(): Listening on port 6666 for tcl connections
Info : 28 599 server.c:297 add_service(): Listening on port 4444 for telnet connections
Debug: 29 599 command.c:152 script_debug(): command - init
Info : 30 8437 server.c:90 add_connection(): accepting 'gdb' connection on tcp/3333
Debug: 31 8437 breakpoints.c:398 breakpoint_clear_target_internal(): Delete all breakpoints for target: stm32h7x.cpu0
Debug: 32 8437 breakpoints.c:620 watchpoint_clear_target(): Delete all watchpoints for target: stm32h7x.cpu0
Debug: 33 8437 target.c:1815 target_call_event_callbacks(): target event 22 (gdb-attach) for core stm32h7x.cpu0
Debug: 34 8437 target.c:5154 target_handle_event(): target(1): stm32h7x.cpu0 (cortex_m) event: 22 (gdb-attach) action: halt 1000
Debug: 35 8438 command.c:152 script_debug(): command - halt 1000
Debug: 36 8438 target.c:3277 handle_halt_command(): -
Debug: 37 8438 cortex_m.c:1104 cortex_m_halt_one(): [stm32h7x.cpu0] target->state: running
Debug: 38 8439 cortex_m.c:803 cortex_m_debug_entry(): [stm32h7x.cpu0]  
Debug: 39 8441 cortex_m.c:544 cortex_m_clear_halt(): [stm32h7x.cpu0] NVIC_DFSR 0x3
Debug: 40 8457 cortex_m.c:346 cortex_m_fast_read_all_regs(): [stm32h7x.cpu0] read 53 32-bit registers
Debug: 41 8457 cortex_m.c:873 cortex_m_debug_entry(): [stm32h7x.cpu0] entered debug state in core mode: Thread at PC 0x807b854, cpu in Non-Secure state, target->state: halted
Debug: 42 8457 target.c:1815 target_call_event_callbacks(): target event 0 (gdb-halt) for core stm32h7x.cpu0
Debug: 43 8457 target.c:1815 target_call_event_callbacks(): target event 1 (halted) for core stm32h7x.cpu0
User : 44 8457 armv7m.c:741 armv7m_arch_state(): [stm32h7x.cpu0] halted due to debug-request, current mode: Thread 
xPSR: 0x41000000 pc: 0x0807b854 psp: 0x2400b238
Debug: 45 8458 target.c:2600 target_read_u32(): address: 0x5c001000, value: 0x20036450
Debug: 46 8458 stm32h7x.c:768 stm32x_probe(): device id = 0x20036450
Info : 47 8458 stm32h7x.c:780 stm32x_probe(): Device: STM32H74x/75x
Debug: 48 8458 stm32h7x.c:792 stm32x_probe(): flash_regs_base: 0x52002000
Debug: 49 8459 target.c:2624 target_read_u16(): address: 0x1ff1e880, value: 0x0080
Info : 50 8459 stm32h7x.c:808 stm32x_probe(): flash size probed value 128k
Info : 51 8459 stm32h7x.c:846 stm32x_probe(): STM32H7 flash has a single bank
Info : 52 8459 stm32h7x.c:858 stm32x_probe(): Bank (0) size is 128 kb, base address is 0x08000000
Info : 53 8459 stm32h7x.c:864 stm32x_probe(): ignoring flash probed value, using configured bank size
Info : 54 8459 gdb_server.c:1056 gdb_new_connection(): New GDB Connection: 1, Target stm32h7x.cpu0, state: halted
Debug: 55 8460 gdb_server.c:375 gdb_log_incoming_packet(): [stm32h7x.cpu0] received packet: qSupported:multiprocess+;swbreak+;hwbreak+;qRelocInsn+;fork-events+;vfork-events+;exec-events+;vContSupported+;QThreadEvents+;no-resumed+
Debug: 56 8460 gdb_server.c:391 gdb_log_outgoing_packet(): [stm32h7x.cpu0] sending packet: $PacketSize=4000;qXfer:memory-map:read+;qXfer:features:read+;qXfer:threads:read+;QStartNoAckMode+;vContSupported+#02
Debug: 57 8460 gdb_server.c:375 gdb_log_incoming_packet(): [stm32h7x.cpu0] received packet: +
Debug: 58 8461 gdb_server.c:375 gdb_log_incoming_packet(): [stm32h7x.cpu0] received packet: vMustReplyEmpty
Debug: 59 8461 gdb_server.c:391 gdb_log_outgoing_packet(): [stm32h7x.cpu0] sending packet: $#00
Debug: 60 8462 gdb_server.c:375 gdb_log_incoming_packet(): [stm32h7x.cpu0] received packet: +
Debug: 61 8462 gdb_server.c:375 gdb_log_incoming_packet(): [stm32h7x.cpu0] received packet: QStartNoAckMode
Debug: 62 8462 gdb_server.c:391 gdb_log_outgoing_packet(): [stm32h7x.cpu0] sending packet: $OK#9a
Debug: 63 8463 gdb_server.c:375 gdb_log_incoming_packet(): [stm32h7x.cpu0] received packet: +
Debug: 64 8463 gdb_server.c:678 gdb_get_packet_inner(): Received first acknowledgment after entering noack mode. Ignoring it.
Debug: 65 8463 gdb_server.c:375 gdb_log_incoming_packet(): [stm32h7x.cpu0] received packet: Hg0
Debug: 66 8463 gdb_server.c:391 gdb_log_outgoing_packet(): [stm32h7x.cpu0] sending packet: $OK#9a
Debug: 67 8464 gdb_server.c:375 gdb_log_incoming_packet(): [stm32h7x.cpu0] received packet: qXfer:features:read:target.xml:0,1000
Debug: 68 8464 gdb_server.c:388 gdb_log_outgoing_packet(): [stm32h7x.cpu0] sending packet: $<binary-data-3942-bytes>#31
Debug: 69 8474 gdb_server.c:375 gdb_log_incoming_packet(): [stm32h7x.cpu0] received packet: qTStatus
Debug: 70 8474 gdb_server.c:391 gdb_log_outgoing_packet(): [stm32h7x.cpu0] sending packet: $#00
Debug: 71 8474 gdb_server.c:375 gdb_log_incoming_packet(): [stm32h7x.cpu0] received packet: ?
Debug: 72 8474 gdb_server.c:148 gdb_last_signal(): [stm32h7x.cpu0] Debug reason is: DBGRQ
Debug: 73 8474 gdb_server.c:391 gdb_log_outgoing_packet(): [stm32h7x.cpu0] sending packet: $S02#b5
Warn : 74 8475 gdb_server.c:3618 gdb_input_inner(): Prefer GDB command "target extended-remote :3333" instead of "target remote :3333"
Debug: 75 8475 gdb_server.c:375 gdb_log_incoming_packet(): [stm32h7x.cpu0] received packet: qXfer:threads:read::0,1000
Debug: 76 8475 gdb_server.c:388 gdb_log_outgoing_packet(): [stm32h7x.cpu0] sending packet: $<binary-data-44-bytes>#02
Debug: 77 8476 gdb_server.c:375 gdb_log_incoming_packet(): [stm32h7x.cpu0] received packet: Hc-1
Debug: 78 8476 gdb_server.c:391 gdb_log_outgoing_packet(): [stm32h7x.cpu0] sending packet: $OK#9a
Debug: 79 8477 gdb_server.c:375 gdb_log_incoming_packet(): [stm32h7x.cpu0] received packet: qC
Debug: 80 8478 gdb_server.c:391 gdb_log_outgoing_packet(): [stm32h7x.cpu0] sending packet: $QC0#c4
Debug: 81 8478 gdb_server.c:375 gdb_log_incoming_packet(): [stm32h7x.cpu0] received packet: qAttached
Debug: 82 8478 gdb_server.c:391 gdb_log_outgoing_packet(): [stm32h7x.cpu0] sending packet: $1#31
Debug: 83 8479 gdb_server.c:375 gdb_log_incoming_packet(): [stm32h7x.cpu0] received packet: g
Debug: 84 8479 gdb_server.c:391 gdb_log_outgoing_packet(): [stm32h7x.cpu0] sending packet: $0000000088b200240000000000000000efbeaddeefbeaddeefbeadde38b20024efbeaddeefbeaddeefbeaddeefbeadde7b06002038b200245db9070854b8070800000041#cf
Debug: 85 8480 gdb_server.c:375 gdb_log_incoming_packet(): [stm32h7x.cpu0] received packet: qXfer:threads:read::0,1000
Debug: 86 8481 gdb_server.c:388 gdb_log_outgoing_packet(): [stm32h7x.cpu0] sending packet: $<binary-data-44-bytes>#02
Debug: 87 8482 gdb_server.c:375 gdb_log_incoming_packet(): [stm32h7x.cpu0] received packet: qXfer:memory-map:read::0,1000
Debug: 88 8482 gdb_server.c:388 gdb_log_outgoing_packet(): [stm32h7x.cpu0] sending packet: $<binary-data-263-bytes>#30
Debug: 89 8484 gdb_server.c:375 gdb_log_incoming_packet(): [stm32h7x.cpu0] received packet: m807b854,4
Debug: 90 8484 gdb_server.c:1521 gdb_read_memory_packet(): addr: 0x000000000807b854, len: 0x00000004
Debug: 91 8484 target.c:2447 target_read_buffer(): reading buffer of 4 byte at 0x0807b854
Debug: 92 8485 gdb_server.c:391 gdb_log_outgoing_packet(): [stm32h7x.cpu0] sending packet: $1344db00#f2
Debug: 93 8486 gdb_server.c:375 gdb_log_incoming_packet(): [stm32h7x.cpu0] received packet: m807b854,2
Debug: 94 8486 gdb_server.c:1521 gdb_read_memory_packet(): addr: 0x000000000807b854, len: 0x00000002
Debug: 95 8486 target.c:2447 target_read_buffer(): reading buffer of 2 byte at 0x0807b854
Debug: 96 8486 gdb_server.c:391 gdb_log_outgoing_packet(): [stm32h7x.cpu0] sending packet: $1344#cc
Debug: 97 8575 gdb_server.c:375 gdb_log_incoming_packet(): [stm32h7x.cpu0] received packet: qXfer:threads:read::0,1000
Debug: 98 8575 gdb_server.c:388 gdb_log_outgoing_packet(): [stm32h7x.cpu0] sending packet: $<binary-data-44-bytes>#02
Debug: 99 8770 gdb_server.c:375 gdb_log_incoming_packet(): [stm32h7x.cpu0] received packet: qSymbol::
Debug: 100 8770 gdb_server.c:391 gdb_log_outgoing_packet(): [stm32h7x.cpu0] sending packet: $OK#9a
Debug: 101 8771 gdb_server.c:375 gdb_log_incoming_packet(): [stm32h7x.cpu0] received packet: qSymbol::
Debug: 102 8771 gdb_server.c:391 gdb_log_outgoing_packet(): [stm32h7x.cpu0] sending packet: $OK#9a
Debug: 103 8772 gdb_server.c:375 gdb_log_incoming_packet(): [stm32h7x.cpu0] received packet: g
Debug: 104 8772 gdb_server.c:391 gdb_log_outgoing_packet(): [stm32h7x.cpu0] sending packet: $0000000088b200240000000000000000efbeaddeefbeaddeefbeadde38b20024efbeaddeefbeaddeefbeaddeefbeadde7b06002038b200245db9070854b8070800000041#cf
Debug: 105 8776 gdb_server.c:375 gdb_log_incoming_packet(): [stm32h7x.cpu0] received packet: qRcmd,7265736574
Debug: 106 8777 command.c:152 script_debug(): command - reset
Debug: 107 8777 target.c:1834 target_call_reset_callbacks(): target reset 1 (run)
Debug: 108 8777 target.c:1834 target_call_reset_callbacks(): target reset 1 (run)
Debug: 109 8777 command.c:152 script_debug(): command - target names
Debug: 110 8778 command.c:152 script_debug(): command - stm32h7x.ap2 invoke-event reset-start
Debug: 111 8778 command.c:152 script_debug(): command - stm32h7x.cpu0 invoke-event reset-start
Debug: 112 8778 command.c:152 script_debug(): command - transport select
Debug: 113 8778 command.c:152 script_debug(): command - transport select
Debug: 114 8778 command.c:152 script_debug(): command - stm32h7x.ap2 invoke-event examine-start
Debug: 115 8778 command.c:152 script_debug(): command - stm32h7x.ap2 arp_examine allow-defer
Debug: 116 8778 command.c:152 script_debug(): command - stm32h7x.ap2 invoke-event examine-end
Debug: 117 8778 command.c:152 script_debug(): command - transport select
Debug: 118 8778 command.c:152 script_debug(): command - stm32h7x.cpu0 invoke-event examine-start
Debug: 119 8778 command.c:152 script_debug(): command - stm32h7x.cpu0 arp_examine allow-defer
Debug: 120 8779 arm_adi_v5.c:825 mem_ap_init(): MEM_AP Packed Transfers: enabled
Debug: 121 8779 arm_adi_v5.c:836 mem_ap_init(): MEM_AP CFG: large data 0, long address 0, big-endian 0
Debug: 122 8779 command.c:152 script_debug(): command - stm32h7x.cpu0 invoke-event examine-end
Debug: 123 8780 target.c:5154 target_handle_event(): target(1): stm32h7x.cpu0 (cortex_m) event: 21 (examine-end) action: 
	# Enable D3 and D1 DBG clocks
	# DBGMCU_CR |= D3DBGCKEN | D1DBGCKEN
	stm32h7x_dbgmcu_mmw 0x004 0x00600000 0

	# Enable debug during low power modes (uses more power)
	# DBGMCU_CR |= DBG_STANDBY | DBG_STOP | DBG_SLEEP D1 Domain
	stm32h7x_dbgmcu_mmw 0x004 0x00000007 0
	# DBGMCU_CR |= DBG_STANDBY | DBG_STOP | DBG_SLEEP D2 Domain
	stm32h7x_dbgmcu_mmw 0x004 0x00000038 0

	# Stop watchdog counters during halt
	# DBGMCU_APB3FZ1 |= WWDG1
	stm32h7x_dbgmcu_mmw 0x034 0x00000040 0
	# DBGMCU_APB1LFZ1 |= WWDG2
	stm32h7x_dbgmcu_mmw 0x03C 0x00000800 0
	# DBGMCU_APB4FZ1 |= WDGLSD1 | WDGLSD2
	stm32h7x_dbgmcu_mmw 0x054 0x000C0000 0

	# Enable clock for tracing
	# DBGMCU_CR |= TRACECLKEN
	stm32h7x_dbgmcu_mmw 0x004 0x00100000 0

	# RM0399 (id 0x450) M7+M4 with SWO Funnel
	# RM0433 (id 0x450) M7 with SWO Funnel
	# RM0455 (id 0x480) M7 without SWO Funnel
	# RM0468 (id 0x483) M7 without SWO Funnel
	# Enable CM7 and CM4 slave ports in SWO trace Funnel
	# Works ok also on devices single core and without SWO funnel
	# Hack, use stm32h7x_dbgmcu_mmw with big offset to control SWTF
	# SWTF_CTRL |= ENS0 | ENS1
	stm32h7x_dbgmcu_mmw 0x3000 0x00000003 0

Debug: 124 8780 command.c:152 script_debug(): command - transport select
Debug: 125 8780 command.c:152 script_debug(): command - target current
Debug: 126 8780 command.c:152 script_debug(): command - stm32h7x.ap2 read_memory 3759017988 32 1
Debug: 127 8780 mem_ap.c:241 mem_ap_read_memory(): Reading memory at physical address 0xe00e1004; size 4; count 1
Debug: 128 8781 command.c:152 script_debug(): command - stm32h7x.ap2 mww 3759017988 7340095
Debug: 129 8781 mem_ap.c:256 mem_ap_write_memory(): Writing memory at physical address 0xe00e1004; size 4; count 1
Debug: 130 8781 command.c:152 script_debug(): command - transport select
Debug: 131 8782 command.c:152 script_debug(): command - target current
Debug: 132 8782 command.c:152 script_debug(): command - stm32h7x.ap2 read_memory 3759017988 32 1
Debug: 133 8782 mem_ap.c:241 mem_ap_read_memory(): Reading memory at physical address 0xe00e1004; size 4; count 1
Debug: 134 8782 command.c:152 script_debug(): command - stm32h7x.ap2 mww 3759017988 7340095
Debug: 135 8783 mem_ap.c:256 mem_ap_write_memory(): Writing memory at physical address 0xe00e1004; size 4; count 1
Debug: 136 8784 command.c:152 script_debug(): command - transport select
Debug: 137 8784 command.c:152 script_debug(): command - target current
Debug: 138 8784 command.c:152 script_debug(): command - stm32h7x.ap2 read_memory 3759017988 32 1
Debug: 139 8784 mem_ap.c:241 mem_ap_read_memory(): Reading memory at physical address 0xe00e1004; size 4; count 1
Debug: 140 8784 command.c:152 script_debug(): command - stm32h7x.ap2 mww 3759017988 7340095
Debug: 141 8785 mem_ap.c:256 mem_ap_write_memory(): Writing memory at physical address 0xe00e1004; size 4; count 1
Debug: 142 8786 command.c:152 script_debug(): command - transport select
Debug: 143 8786 command.c:152 script_debug(): command - target current
Debug: 144 8786 command.c:152 script_debug(): command - stm32h7x.ap2 read_memory 3759018036 32 1
Debug: 145 8786 mem_ap.c:241 mem_ap_read_memory(): Reading memory at physical address 0xe00e1034; size 4; count 1
Debug: 146 8786 command.c:152 script_debug(): command - stm32h7x.ap2 mww 3759018036 64
Debug: 147 8787 mem_ap.c:256 mem_ap_write_memory(): Writing memory at physical address 0xe00e1034; size 4; count 1
Debug: 148 8787 command.c:152 script_debug(): command - transport select
Debug: 149 8787 command.c:152 script_debug(): command - target current
Debug: 150 8787 command.c:152 script_debug(): command - stm32h7x.ap2 read_memory 3759018044 32 1
Debug: 151 8788 mem_ap.c:241 mem_ap_read_memory(): Reading memory at physical address 0xe00e103c; size 4; count 1
Debug: 152 8788 command.c:152 script_debug(): command - stm32h7x.ap2 mww 3759018044 2048
Debug: 153 8788 mem_ap.c:256 mem_ap_write_memory(): Writing memory at physical address 0xe00e103c; size 4; count 1
Debug: 154 8789 command.c:152 script_debug(): command - transport select
Debug: 155 8789 command.c:152 script_debug(): command - target current
Debug: 156 8789 command.c:152 script_debug(): command - stm32h7x.ap2 read_memory 3759018068 32 1
Debug: 157 8789 mem_ap.c:241 mem_ap_read_memory(): Reading memory at physical address 0xe00e1054; size 4; count 1
Debug: 158 8790 command.c:152 script_debug(): command - stm32h7x.ap2 mww 3759018068 786432
Debug: 159 8790 mem_ap.c:256 mem_ap_write_memory(): Writing memory at physical address 0xe00e1054; size 4; count 1
Debug: 160 8791 command.c:152 script_debug(): command - transport select
Debug: 161 8791 command.c:152 script_debug(): command - target current
Debug: 162 8791 command.c:152 script_debug(): command - stm32h7x.ap2 read_memory 3759017988 32 1
Debug: 163 8791 mem_ap.c:241 mem_ap_read_memory(): Reading memory at physical address 0xe00e1004; size 4; count 1
Debug: 164 8791 command.c:152 script_debug(): command - stm32h7x.ap2 mww 3759017988 7340095
Debug: 165 8792 mem_ap.c:256 mem_ap_write_memory(): Writing memory at physical address 0xe00e1004; size 4; count 1
Debug: 166 8792 command.c:152 script_debug(): command - transport select
Debug: 167 8792 command.c:152 script_debug(): command - target current
Debug: 168 8793 command.c:152 script_debug(): command - stm32h7x.ap2 read_memory 3759030272 32 1
Debug: 169 8793 mem_ap.c:241 mem_ap_read_memory(): Reading memory at physical address 0xe00e4000; size 4; count 1
Debug: 170 8794 command.c:152 script_debug(): command - stm32h7x.ap2 mww 3759030272 771
Debug: 171 8794 mem_ap.c:256 mem_ap_write_memory(): Writing memory at physical address 0xe00e4000; size 4; count 1
Debug: 172 8794 command.c:152 script_debug(): command - stm32h7x.ap2 invoke-event reset-assert-pre
Debug: 173 8794 command.c:152 script_debug(): command - stm32h7x.cpu0 invoke-event reset-assert-pre
Debug: 174 8794 command.c:152 script_debug(): command - transport select
Debug: 175 8794 command.c:152 script_debug(): command - stm32h7x.ap2 arp_reset assert 0
Debug: 176 8794 target.c:2171 target_free_all_working_areas_restore(): freeing all working areas
Debug: 177 8795 mem_ap.c:130 mem_ap_assert_reset(): mem_ap_assert_reset
Debug: 178 8795 command.c:152 script_debug(): command - transport select
Debug: 179 8795 command.c:152 script_debug(): command - stm32h7x.cpu0 arp_reset assert 0
Debug: 180 8795 target.c:2171 target_free_all_working_areas_restore(): freeing all working areas
Debug: 181 8795 cortex_m.c:1760 cortex_m_assert_reset(): [stm32h7x.cpu0] target->state: halted, examined
Debug: 182 8797 cortex_m.c:544 cortex_m_clear_halt(): [stm32h7x.cpu0] NVIC_DFSR 0x1
Debug: 183 8797 cortex_m.c:1879 cortex_m_assert_reset(): [stm32h7x.cpu0] Using Cortex-M SYSRESETREQ
Debug: 184 8798 arm_adi_v5.c:754 dap_dp_init_or_reconnect(): stm32h7x.dap
Debug: 185 8798 arm_adi_v5.c:679 dap_dp_init(): stm32h7x.dap
Debug: 186 8798 arm_adi_v5.c:711 dap_dp_init(): DAP: wait CDBGPWRUPACK
Debug: 187 8798 arm_adi_v5.h:641 dap_dp_poll_register(): DAP: poll 4, mask 0x20000000, value 0x20000000
Debug: 188 8799 arm_adi_v5.c:719 dap_dp_init(): DAP: wait CSYSPWRUPACK
Debug: 189 8799 arm_adi_v5.h:641 dap_dp_poll_register(): DAP: poll 4, mask 0x80000000, value 0x80000000
Debug: 190 8799 cmsis_dap.c:817 cmsis_dap_swd_write_from_queue(): refusing to enable sticky overrun detection
Debug: 191 8885 command.c:152 script_debug(): command - stm32h7x.ap2 invoke-event reset-assert-post
Debug: 192 8885 command.c:152 script_debug(): command - stm32h7x.cpu0 invoke-event reset-assert-post
Debug: 193 8885 command.c:152 script_debug(): command - stm32h7x.ap2 invoke-event reset-deassert-pre
Debug: 194 8885 command.c:152 script_debug(): command - stm32h7x.cpu0 invoke-event reset-deassert-pre
Debug: 195 8885 command.c:152 script_debug(): command - transport select
Debug: 196 8885 command.c:152 script_debug(): command - stm32h7x.ap2 arp_reset deassert 0
Debug: 197 8885 target.c:2171 target_free_all_working_areas_restore(): freeing all working areas
Debug: 198 8885 mem_ap.c:166 mem_ap_deassert_reset(): mem_ap_deassert_reset
Debug: 199 8885 command.c:152 script_debug(): command - transport select
Debug: 200 8886 command.c:152 script_debug(): command - stm32h7x.cpu0 arp_reset deassert 0
Debug: 201 8886 target.c:2171 target_free_all_working_areas_restore(): freeing all working areas
Debug: 202 8886 cortex_m.c:1932 cortex_m_deassert_reset(): [stm32h7x.cpu0] target->state: reset, examined
Debug: 203 8886 core.c:640 adapter_system_reset(): SRST line released
Debug: 204 9042 command.c:152 script_debug(): command - stm32h7x.ap2 invoke-event reset-deassert-post
Debug: 205 9042 command.c:152 script_debug(): command - stm32h7x.cpu0 invoke-event reset-deassert-post
Debug: 206 9042 command.c:152 script_debug(): command - stm32h7x.ap2 invoke-event reset-end
Debug: 207 9042 command.c:152 script_debug(): command - stm32h7x.cpu0 invoke-event reset-end
Debug: 208 9044 cortex_m.c:936 cortex_m_poll_one(): [stm32h7x.cpu0] Exit from reset with dcb_dhcsr 0x1010001
Debug: 209 9044 cortex_m.c:606 cortex_m_endreset_event(): [stm32h7x.cpu0] DCB_DEMCR = 0x01000000
Debug: 210 9045 target.c:2688 target_write_u32(): address: 0xe0002000, value: 0x00000003
Debug: 211 9046 target.c:2600 target_read_u32(): address: 0xe0002000, value: 0x10000081
Debug: 212 9046 target.c:2688 target_write_u32(): address: 0xe0002008, value: 0x00000000
Debug: 213 9047 target.c:2688 target_write_u32(): address: 0xe000200c, value: 0x00000000
Debug: 214 9048 target.c:2688 target_write_u32(): address: 0xe0002010, value: 0x00000000
Debug: 215 9048 target.c:2688 target_write_u32(): address: 0xe0002014, value: 0x00000000
Debug: 216 9049 target.c:2688 target_write_u32(): address: 0xe0002018, value: 0x00000000
Debug: 217 9049 target.c:2688 target_write_u32(): address: 0xe000201c, value: 0x00000000
Debug: 218 9050 target.c:2688 target_write_u32(): address: 0xe0002020, value: 0x00000000
Debug: 219 9050 target.c:2688 target_write_u32(): address: 0xe0002024, value: 0x00000000
Debug: 220 9051 target.c:2688 target_write_u32(): address: 0xe0001020, value: 0x00000000
Debug: 221 9051 target.c:2688 target_write_u32(): address: 0xe0001024, value: 0x00000000
Debug: 222 9052 target.c:2688 target_write_u32(): address: 0xe0001028, value: 0x00000000
Debug: 223 9052 target.c:2688 target_write_u32(): address: 0xe0001030, value: 0x00000000
Debug: 224 9053 target.c:2688 target_write_u32(): address: 0xe0001034, value: 0x00000000
Debug: 225 9054 target.c:2688 target_write_u32(): address: 0xe0001038, value: 0x00000000
Debug: 226 9054 target.c:2688 target_write_u32(): address: 0xe0001040, value: 0x00000000
Debug: 227 9054 target.c:2688 target_write_u32(): address: 0xe0001044, value: 0x00000000
Debug: 228 9055 target.c:2688 target_write_u32(): address: 0xe0001048, value: 0x00000000
Debug: 229 9056 target.c:2688 target_write_u32(): address: 0xe0001050, value: 0x00000000
Debug: 230 9056 target.c:2688 target_write_u32(): address: 0xe0001054, value: 0x00000000
Debug: 231 9056 target.c:2688 target_write_u32(): address: 0xe0001058, value: 0x00000000
Debug: 232 9057 gdb_server.c:391 gdb_log_outgoing_packet(): [stm32h7x.cpu0] sending packet: $OK#9a
Debug: 233 9060 gdb_server.c:375 gdb_log_incoming_packet(): [stm32h7x.cpu0] received packet: qRcmd,68616c74
Debug: 234 9061 command.c:152 script_debug(): command - halt
Debug: 235 9061 target.c:3277 handle_halt_command(): -
Debug: 236 9061 cortex_m.c:1104 cortex_m_halt_one(): [stm32h7x.cpu0] target->state: running
Debug: 237 9062 cortex_m.c:803 cortex_m_debug_entry(): [stm32h7x.cpu0]  
Debug: 238 9064 cortex_m.c:544 cortex_m_clear_halt(): [stm32h7x.cpu0] NVIC_DFSR 0x1
Debug: 239 9079 cortex_m.c:346 cortex_m_fast_read_all_regs(): [stm32h7x.cpu0] read 53 32-bit registers
Debug: 240 9080 cortex_m.c:873 cortex_m_debug_entry(): [stm32h7x.cpu0] entered debug state in core mode: Thread at PC 0x80a0a80, cpu in Non-Secure state, target->state: halted
Debug: 241 9080 target.c:1815 target_call_event_callbacks(): target event 0 (gdb-halt) for core stm32h7x.cpu0
Debug: 242 9080 target.c:1815 target_call_event_callbacks(): target event 1 (halted) for core stm32h7x.cpu0
User : 243 9080 armv7m.c:741 armv7m_arch_state(): [stm32h7x.cpu0] halted due to debug-request, current mode: Thread 
xPSR: 0x81000000 pc: 0x080a0a80 psp: 0x24007508
Debug: 244 9080 gdb_server.c:391 gdb_log_outgoing_packet(): [stm32h7x.cpu0] sending packet: $O5b73746d33326837782e637075305d2068616c7465642064756520746f2064656275672d726571756573742c2063757272656e74206d6f64653a20546872656164200a785053523a20307838313030303030302070633a2030783038306130613830207073703a20307832343030373530380a#04
Debug: 245 9080 target.c:1815 target_call_event_callbacks(): target event 8 (gdb-end) for core stm32h7x.cpu0
Debug: 246 9081 gdb_server.c:391 gdb_log_outgoing_packet(): [stm32h7x.cpu0] sending packet: $OK#9a
Debug: 247 9110 gdb_server.c:375 gdb_log_incoming_packet(): [stm32h7x.cpu0] received packet: X20000000,0:
Debug: 248 9110 gdb_server.c:391 gdb_log_outgoing_packet(): [stm32h7x.cpu0] sending packet: $OK#9a
Debug: 249 9112 gdb_server.c:375 gdb_log_incoming_packet(): [stm32h7x.cpu0] received packet: X20000000,20b8:
Debug: 250 9112 gdb_server.c:391 gdb_log_outgoing_packet(): [stm32h7x.cpu0] sending packet: $OK#9a
Debug: 251 9112 gdb_server.c:1669 gdb_write_memory_binary_packet(): addr: 0x20000000, len: 0x000020b8
Debug: 252 9112 target.c:2382 target_write_buffer(): writing buffer of 8376 byte at 0x20000000
Debug: 253 9240 gdb_server.c:375 gdb_log_incoming_packet(): [stm32h7x.cpu0] received packet: vFlashErase:08000000,000e0000
Debug: 254 9240 target.c:1815 target_call_event_callbacks(): target event 24 (gdb-flash-erase-start) for core stm32h7x.cpu0
Debug: 255 9240 target.c:5154 target_handle_event(): target(1): stm32h7x.cpu0 (cortex_m) event: 24 (gdb-flash-erase-start) action: reset init
Debug: 256 9240 command.c:152 script_debug(): command - reset init
Debug: 257 9241 target.c:1834 target_call_reset_callbacks(): target reset 3 (init)
Debug: 258 9241 target.c:1834 target_call_reset_callbacks(): target reset 3 (init)
Debug: 259 9242 command.c:152 script_debug(): command - target names
Debug: 260 9242 command.c:152 script_debug(): command - stm32h7x.ap2 invoke-event reset-start
Debug: 261 9242 command.c:152 script_debug(): command - stm32h7x.cpu0 invoke-event reset-start
Debug: 262 9242 command.c:152 script_debug(): command - transport select
Debug: 263 9242 command.c:152 script_debug(): command - transport select
Debug: 264 9242 command.c:152 script_debug(): command - stm32h7x.ap2 invoke-event examine-start
Debug: 265 9242 command.c:152 script_debug(): command - stm32h7x.ap2 arp_examine allow-defer
Debug: 266 9242 command.c:152 script_debug(): command - stm32h7x.ap2 invoke-event examine-end
Debug: 267 9242 command.c:152 script_debug(): command - transport select
Debug: 268 9242 command.c:152 script_debug(): command - stm32h7x.cpu0 invoke-event examine-start
Debug: 269 9242 command.c:152 script_debug(): command - stm32h7x.cpu0 arp_examine allow-defer
Debug: 270 9243 arm_adi_v5.c:825 mem_ap_init(): MEM_AP Packed Transfers: enabled
Debug: 271 9243 arm_adi_v5.c:836 mem_ap_init(): MEM_AP CFG: large data 0, long address 0, big-endian 0
Debug: 272 9243 command.c:152 script_debug(): command - stm32h7x.cpu0 invoke-event examine-end
Debug: 273 9243 target.c:5154 target_handle_event(): target(1): stm32h7x.cpu0 (cortex_m) event: 21 (examine-end) action: 
	# Enable D3 and D1 DBG clocks
	# DBGMCU_CR |= D3DBGCKEN | D1DBGCKEN
	stm32h7x_dbgmcu_mmw 0x004 0x00600000 0

	# Enable debug during low power modes (uses more power)
	# DBGMCU_CR |= DBG_STANDBY | DBG_STOP | DBG_SLEEP D1 Domain
	stm32h7x_dbgmcu_mmw 0x004 0x00000007 0
	# DBGMCU_CR |= DBG_STANDBY | DBG_STOP | DBG_SLEEP D2 Domain
	stm32h7x_dbgmcu_mmw 0x004 0x00000038 0

	# Stop watchdog counters during halt
	# DBGMCU_APB3FZ1 |= WWDG1
	stm32h7x_dbgmcu_mmw 0x034 0x00000040 0
	# DBGMCU_APB1LFZ1 |= WWDG2
	stm32h7x_dbgmcu_mmw 0x03C 0x00000800 0
	# DBGMCU_APB4FZ1 |= WDGLSD1 | WDGLSD2
	stm32h7x_dbgmcu_mmw 0x054 0x000C0000 0

	# Enable clock for tracing
	# DBGMCU_CR |= TRACECLKEN
	stm32h7x_dbgmcu_mmw 0x004 0x00100000 0

	# RM0399 (id 0x450) M7+M4 with SWO Funnel
	# RM0433 (id 0x450) M7 with SWO Funnel
	# RM0455 (id 0x480) M7 without SWO Funnel
	# RM0468 (id 0x483) M7 without SWO Funnel
	# Enable CM7 and CM4 slave ports in SWO trace Funnel
	# Works ok also on devices single core and without SWO funnel
	# Hack, use stm32h7x_dbgmcu_mmw with big offset to control SWTF
	# SWTF_CTRL |= ENS0 | ENS1
	stm32h7x_dbgmcu_mmw 0x3000 0x00000003 0

Debug: 274 9243 command.c:152 script_debug(): command - transport select
Debug: 275 9244 command.c:152 script_debug(): command - target current
Debug: 276 9244 command.c:152 script_debug(): command - stm32h7x.ap2 read_memory 3759017988 32 1
Debug: 277 9244 mem_ap.c:241 mem_ap_read_memory(): Reading memory at physical address 0xe00e1004; size 4; count 1
Debug: 278 9244 command.c:152 script_debug(): command - stm32h7x.ap2 mww 3759017988 7340095
Debug: 279 9244 mem_ap.c:256 mem_ap_write_memory(): Writing memory at physical address 0xe00e1004; size 4; count 1
Debug: 280 9244 command.c:152 script_debug(): command - transport select
Debug: 281 9245 command.c:152 script_debug(): command - target current
Debug: 282 9245 command.c:152 script_debug(): command - stm32h7x.ap2 read_memory 3759017988 32 1
Debug: 283 9245 mem_ap.c:241 mem_ap_read_memory(): Reading memory at physical address 0xe00e1004; size 4; count 1
Debug: 284 9246 command.c:152 script_debug(): command - stm32h7x.ap2 mww 3759017988 7340095
Debug: 285 9246 mem_ap.c:256 mem_ap_write_memory(): Writing memory at physical address 0xe00e1004; size 4; count 1
Debug: 286 9246 command.c:152 script_debug(): command - transport select
Debug: 287 9247 command.c:152 script_debug(): command - target current
Debug: 288 9247 command.c:152 script_debug(): command - stm32h7x.ap2 read_memory 3759017988 32 1
Debug: 289 9247 mem_ap.c:241 mem_ap_read_memory(): Reading memory at physical address 0xe00e1004; size 4; count 1
Debug: 290 9247 command.c:152 script_debug(): command - stm32h7x.ap2 mww 3759017988 7340095
Debug: 291 9248 mem_ap.c:256 mem_ap_write_memory(): Writing memory at physical address 0xe00e1004; size 4; count 1
Debug: 292 9249 command.c:152 script_debug(): command - transport select
Debug: 293 9249 command.c:152 script_debug(): command - target current
Debug: 294 9249 command.c:152 script_debug(): command - stm32h7x.ap2 read_memory 3759018036 32 1
Debug: 295 9249 mem_ap.c:241 mem_ap_read_memory(): Reading memory at physical address 0xe00e1034; size 4; count 1
Debug: 296 9250 command.c:152 script_debug(): command - stm32h7x.ap2 mww 3759018036 64
Debug: 297 9250 mem_ap.c:256 mem_ap_write_memory(): Writing memory at physical address 0xe00e1034; size 4; count 1
Debug: 298 9252 command.c:152 script_debug(): command - transport select
Debug: 299 9252 command.c:152 script_debug(): command - target current
Debug: 300 9252 command.c:152 script_debug(): command - stm32h7x.ap2 read_memory 3759018044 32 1
Debug: 301 9252 mem_ap.c:241 mem_ap_read_memory(): Reading memory at physical address 0xe00e103c; size 4; count 1
Debug: 302 9253 command.c:152 script_debug(): command - stm32h7x.ap2 mww 3759018044 2048
Debug: 303 9253 mem_ap.c:256 mem_ap_write_memory(): Writing memory at physical address 0xe00e103c; size 4; count 1
Debug: 304 9254 command.c:152 script_debug(): command - transport select
Debug: 305 9254 command.c:152 script_debug(): command - target current
Debug: 306 9254 command.c:152 script_debug(): command - stm32h7x.ap2 read_memory 3759018068 32 1
Debug: 307 9254 mem_ap.c:241 mem_ap_read_memory(): Reading memory at physical address 0xe00e1054; size 4; count 1
Debug: 308 9255 command.c:152 script_debug(): command - stm32h7x.ap2 mww 3759018068 786432
Debug: 309 9255 mem_ap.c:256 mem_ap_write_memory(): Writing memory at physical address 0xe00e1054; size 4; count 1
Debug: 310 9256 command.c:152 script_debug(): command - transport select
Debug: 311 9256 command.c:152 script_debug(): command - target current
Debug: 312 9256 command.c:152 script_debug(): command - stm32h7x.ap2 read_memory 3759017988 32 1
Debug: 313 9256 mem_ap.c:241 mem_ap_read_memory(): Reading memory at physical address 0xe00e1004; size 4; count 1
Debug: 314 9256 command.c:152 script_debug(): command - stm32h7x.ap2 mww 3759017988 7340095
Debug: 315 9257 mem_ap.c:256 mem_ap_write_memory(): Writing memory at physical address 0xe00e1004; size 4; count 1
Debug: 316 9258 command.c:152 script_debug(): command - transport select
Debug: 317 9258 command.c:152 script_debug(): command - target current
Debug: 318 9258 command.c:152 script_debug(): command - stm32h7x.ap2 read_memory 3759030272 32 1
Debug: 319 9258 mem_ap.c:241 mem_ap_read_memory(): Reading memory at physical address 0xe00e4000; size 4; count 1
Debug: 320 9258 command.c:152 script_debug(): command - stm32h7x.ap2 mww 3759030272 771
Debug: 321 9259 mem_ap.c:256 mem_ap_write_memory(): Writing memory at physical address 0xe00e4000; size 4; count 1
Debug: 322 9260 command.c:152 script_debug(): command - stm32h7x.ap2 invoke-event reset-assert-pre
Debug: 323 9260 command.c:152 script_debug(): command - stm32h7x.cpu0 invoke-event reset-assert-pre
Debug: 324 9260 command.c:152 script_debug(): command - transport select
Debug: 325 9260 command.c:152 script_debug(): command - stm32h7x.ap2 arp_reset assert 1
Debug: 326 9260 target.c:2171 target_free_all_working_areas_restore(): freeing all working areas
Debug: 327 9260 mem_ap.c:130 mem_ap_assert_reset(): mem_ap_assert_reset
Debug: 328 9260 command.c:152 script_debug(): command - transport select
Debug: 329 9260 command.c:152 script_debug(): command - stm32h7x.cpu0 arp_reset assert 1
Debug: 330 9260 target.c:2171 target_free_all_working_areas_restore(): freeing all working areas
Debug: 331 9260 cortex_m.c:1760 cortex_m_assert_reset(): [stm32h7x.cpu0] target->state: halted, examined
Debug: 332 9261 cortex_m.c:1879 cortex_m_assert_reset(): [stm32h7x.cpu0] Using Cortex-M SYSRESETREQ
Debug: 333 9262 arm_adi_v5.c:754 dap_dp_init_or_reconnect(): stm32h7x.dap
Debug: 334 9263 arm_adi_v5.c:679 dap_dp_init(): stm32h7x.dap
Debug: 335 9263 arm_adi_v5.c:711 dap_dp_init(): DAP: wait CDBGPWRUPACK
Debug: 336 9263 arm_adi_v5.h:641 dap_dp_poll_register(): DAP: poll 4, mask 0x20000000, value 0x20000000
Debug: 337 9263 arm_adi_v5.c:719 dap_dp_init(): DAP: wait CSYSPWRUPACK
Debug: 338 9264 arm_adi_v5.h:641 dap_dp_poll_register(): DAP: poll 4, mask 0x80000000, value 0x80000000
Debug: 339 9264 cmsis_dap.c:817 cmsis_dap_swd_write_from_queue(): refusing to enable sticky overrun detection
Debug: 340 9351 cortex_m.c:1104 cortex_m_halt_one(): [stm32h7x.cpu0] target->state: reset
Debug: 341 9351 command.c:152 script_debug(): command - stm32h7x.ap2 invoke-event reset-assert-post
Debug: 342 9351 command.c:152 script_debug(): command - stm32h7x.cpu0 invoke-event reset-assert-post
Debug: 343 9351 command.c:152 script_debug(): command - stm32h7x.ap2 invoke-event reset-deassert-pre
Debug: 344 9351 command.c:152 script_debug(): command - stm32h7x.cpu0 invoke-event reset-deassert-pre
Debug: 345 9352 command.c:152 script_debug(): command - transport select
Debug: 346 9352 command.c:152 script_debug(): command - stm32h7x.ap2 arp_reset deassert 1
Debug: 347 9352 target.c:2171 target_free_all_working_areas_restore(): freeing all working areas
Debug: 348 9352 target.c:1815 target_call_event_callbacks(): target event 0 (gdb-halt) for core stm32h7x.ap2
Debug: 349 9352 target.c:1815 target_call_event_callbacks(): target event 1 (halted) for core stm32h7x.ap2
Debug: 350 9352 mem_ap.c:83 mem_ap_arch_state(): mem_ap_arch_state
Debug: 351 9352 mem_ap.c:166 mem_ap_deassert_reset(): mem_ap_deassert_reset
Debug: 352 9352 command.c:152 script_debug(): command - transport select
Debug: 353 9352 command.c:152 script_debug(): command - stm32h7x.cpu0 arp_reset deassert 1
Debug: 354 9352 target.c:2171 target_free_all_working_areas_restore(): freeing all working areas
Debug: 355 9352 cortex_m.c:1932 cortex_m_deassert_reset(): [stm32h7x.cpu0] target->state: reset, examined
Debug: 356 9352 command.c:152 script_debug(): command - stm32h7x.ap2 invoke-event reset-deassert-post
Debug: 357 9352 command.c:152 script_debug(): command - stm32h7x.cpu0 invoke-event reset-deassert-post
Debug: 358 9353 command.c:152 script_debug(): command - transport select
Debug: 359 9353 command.c:152 script_debug(): command - stm32h7x.ap2 was_examined
Debug: 360 9353 command.c:152 script_debug(): command - stm32h7x.ap2 arp_waitstate halted 1000
Debug: 361 9353 command.c:152 script_debug(): command - stm32h7x.ap2 curstate
Debug: 362 9353 command.c:152 script_debug(): command - transport select
Debug: 363 9353 command.c:152 script_debug(): command - stm32h7x.cpu0 was_examined
Debug: 364 9353 command.c:152 script_debug(): command - stm32h7x.cpu0 arp_waitstate halted 1000
Debug: 365 9354 target.c:3258 target_wait_state(): waiting for target halted...
Debug: 366 9355 cortex_m.c:936 cortex_m_poll_one(): [stm32h7x.cpu0] Exit from reset with dcb_dhcsr 0x30003
Debug: 367 9355 cortex_m.c:606 cortex_m_endreset_event(): [stm32h7x.cpu0] DCB_DEMCR = 0x01000501
Debug: 368 9356 target.c:2688 target_write_u32(): address: 0xe0002000, value: 0x00000003
Debug: 369 9358 target.c:2600 target_read_u32(): address: 0xe0002000, value: 0x10000081
Debug: 370 9358 target.c:2688 target_write_u32(): address: 0xe0002008, value: 0x00000000
Debug: 371 9358 target.c:2688 target_write_u32(): address: 0xe000200c, value: 0x00000000
Debug: 372 9359 target.c:2688 target_write_u32(): address: 0xe0002010, value: 0x00000000
Debug: 373 9360 target.c:2688 target_write_u32(): address: 0xe0002014, value: 0x00000000
Debug: 374 9360 target.c:2688 target_write_u32(): address: 0xe0002018, value: 0x00000000
Debug: 375 9361 target.c:2688 target_write_u32(): address: 0xe000201c, value: 0x00000000
Debug: 376 9361 target.c:2688 target_write_u32(): address: 0xe0002020, value: 0x00000000
Debug: 377 9362 target.c:2688 target_write_u32(): address: 0xe0002024, value: 0x00000000
Debug: 378 9363 target.c:2688 target_write_u32(): address: 0xe0001020, value: 0x00000000
Debug: 379 9363 target.c:2688 target_write_u32(): address: 0xe0001024, value: 0x00000000
Debug: 380 9365 target.c:2688 target_write_u32(): address: 0xe0001028, value: 0x00000000
Debug: 381 9365 target.c:2688 target_write_u32(): address: 0xe0001030, value: 0x00000000
Debug: 382 9366 target.c:2688 target_write_u32(): address: 0xe0001034, value: 0x00000000
Debug: 383 9366 target.c:2688 target_write_u32(): address: 0xe0001038, value: 0x00000000
Debug: 384 9367 target.c:2688 target_write_u32(): address: 0xe0001040, value: 0x00000000
Debug: 385 9367 target.c:2688 target_write_u32(): address: 0xe0001044, value: 0x00000000
Debug: 386 9368 target.c:2688 target_write_u32(): address: 0xe0001048, value: 0x00000000
Debug: 387 9368 target.c:2688 target_write_u32(): address: 0xe0001050, value: 0x00000000
Debug: 388 9369 target.c:2688 target_write_u32(): address: 0xe0001054, value: 0x00000000
Debug: 389 9370 target.c:2688 target_write_u32(): address: 0xe0001058, value: 0x00000000
Debug: 390 9371 cortex_m.c:803 cortex_m_debug_entry(): [stm32h7x.cpu0]  
Debug: 391 9373 cortex_m.c:544 cortex_m_clear_halt(): [stm32h7x.cpu0] NVIC_DFSR 0x9
Debug: 392 9389 cortex_m.c:346 cortex_m_fast_read_all_regs(): [stm32h7x.cpu0] read 53 32-bit registers
Debug: 393 9389 cortex_m.c:873 cortex_m_debug_entry(): [stm32h7x.cpu0] entered debug state in core mode: Thread at PC 0x80a7c80, cpu in Non-Secure state, target->state: halted
Debug: 394 9389 target.c:1815 target_call_event_callbacks(): target event 0 (gdb-halt) for core stm32h7x.cpu0
Debug: 395 9389 target.c:1815 target_call_event_callbacks(): target event 1 (halted) for core stm32h7x.cpu0
User : 396 9390 armv7m.c:741 armv7m_arch_state(): [stm32h7x.cpu0] halted due to debug-request, current mode: Thread 
xPSR: 0x01000000 pc: 0x080a7c80 msp: 0x24080000
Debug: 397 9390 target.c:1815 target_call_event_callbacks(): target event 8 (gdb-end) for core stm32h7x.cpu0
Debug: 398 9390 command.c:152 script_debug(): command - stm32h7x.cpu0 curstate
Debug: 399 9390 command.c:152 script_debug(): command - transport select
Debug: 400 9390 command.c:152 script_debug(): command - stm32h7x.ap2 was_examined
Debug: 401 9390 command.c:152 script_debug(): command - stm32h7x.ap2 arp_waitstate halted 5000
Debug: 402 9390 command.c:152 script_debug(): command - stm32h7x.ap2 invoke-event reset-init
Debug: 403 9390 command.c:152 script_debug(): command - transport select
Debug: 404 9390 command.c:152 script_debug(): command - stm32h7x.cpu0 was_examined
Debug: 405 9390 command.c:152 script_debug(): command - stm32h7x.cpu0 arp_waitstate halted 5000
Debug: 406 9391 command.c:152 script_debug(): command - stm32h7x.cpu0 invoke-event reset-init
Debug: 407 9391 target.c:5154 target_handle_event(): target(1): stm32h7x.cpu0 (cortex_m) event: 15 (reset-init) action: 
	# Clock after reset is HSI at 64 MHz, no need of PLL
	adapter speed 4000

Debug: 408 9391 command.c:152 script_debug(): command - adapter speed 4000
Debug: 409 9391 adapter.c:249 adapter_config_khz(): handle adapter khz
Debug: 410 9391 adapter.c:213 adapter_khz_to_speed(): convert khz to adapter specific speed value
Debug: 411 9391 adapter.c:217 adapter_khz_to_speed(): have adapter set up
Debug: 412 9392 adapter.c:213 adapter_khz_to_speed(): convert khz to adapter specific speed value
Debug: 413 9392 adapter.c:217 adapter_khz_to_speed(): have adapter set up
Debug: 414 9392 command.c:152 script_debug(): command - stm32h7x.ap2 invoke-event reset-end
Debug: 415 9392 command.c:152 script_debug(): command - stm32h7x.cpu0 invoke-event reset-end
Debug: 416 9393 target.c:2600 target_read_u32(): address: 0x5200200c, value: 0x00000031
Debug: 417 9393 target.c:2688 target_write_u32(): address: 0x52002004, value: 0x45670123
Debug: 418 9394 target.c:2688 target_write_u32(): address: 0x52002004, value: 0xcdef89ab
Debug: 419 9396 target.c:2600 target_read_u32(): address: 0x5200200c, value: 0x00000030
Debug: 420 9396 stm32h7x.c:490 stm32x_erase(): erase sector 0
Debug: 421 9396 target.c:2688 target_write_u32(): address: 0x5200200c, value: 0x00000034
Debug: 422 9396 target.c:2688 target_write_u32(): address: 0x5200200c, value: 0x000000b4
Debug: 423 9397 target.c:2600 target_read_u32(): address: 0x52002010, value: 0x00000005
Debug: 424 9411 target.c:2600 target_read_u32(): address: 0x52002010, value: 0x00000005
Debug: 425 9427 target.c:2600 target_read_u32(): address: 0x52002010, value: 0x00000005
Debug: 426 9444 target.c:2600 target_read_u32(): address: 0x52002010, value: 0x00000005
Debug: 427 9459 target.c:2600 target_read_u32(): address: 0x52002010, value: 0x00000005
Debug: 428 9475 target.c:2600 target_read_u32(): address: 0x52002010, value: 0x00000005
Debug: 429 9491 target.c:2600 target_read_u32(): address: 0x52002010, value: 0x00000005
Debug: 430 9507 target.c:2600 target_read_u32(): address: 0x52002010, value: 0x00000005
Debug: 431 9521 target.c:2600 target_read_u32(): address: 0x52002010, value: 0x00000005
Debug: 432 9538 target.c:2600 target_read_u32(): address: 0x52002010, value: 0x00000005
Debug: 433 9554 target.c:2600 target_read_u32(): address: 0x52002010, value: 0x00000005
Debug: 434 9569 target.c:2600 target_read_u32(): address: 0x52002010, value: 0x00000005
Debug: 435 9586 target.c:2600 target_read_u32(): address: 0x52002010, value: 0x00000005
Debug: 436 9601 target.c:2600 target_read_u32(): address: 0x52002010, value: 0x00000005
Debug: 437 9616 target.c:2600 target_read_u32(): address: 0x52002010, value: 0x00000005
Debug: 438 9632 target.c:2600 target_read_u32(): address: 0x52002010, value: 0x00000005
Debug: 439 9648 target.c:2600 target_read_u32(): address: 0x52002010, value: 0x00000005
Debug: 440 9664 target.c:2600 target_read_u32(): address: 0x52002010, value: 0x00000005
Debug: 441 9679 target.c:2600 target_read_u32(): address: 0x52002010, value: 0x00000005
Debug: 442 9695 target.c:2600 target_read_u32(): address: 0x52002010, value: 0x00000005
Debug: 443 9709 target.c:2600 target_read_u32(): address: 0x52002010, value: 0x00000005
Debug: 444 9725 target.c:2600 target_read_u32(): address: 0x52002010, value: 0x00000005
Debug: 445 9741 target.c:2600 target_read_u32(): address: 0x52002010, value: 0x00000005
Debug: 446 9756 target.c:2600 target_read_u32(): address: 0x52002010, value: 0x00000005
Debug: 447 9772 target.c:2600 target_read_u32(): address: 0x52002010, value: 0x00000005
Debug: 448 9788 target.c:2600 target_read_u32(): address: 0x52002010, value: 0x00000005
Debug: 449 9804 target.c:2600 target_read_u32(): address: 0x52002010, value: 0x00000005
Debug: 450 9819 target.c:2600 target_read_u32(): address: 0x52002010, value: 0x00000005
Debug: 451 9836 target.c:2600 target_read_u32(): address: 0x52002010, value: 0x00000005
Debug: 452 9852 target.c:2600 target_read_u32(): address: 0x52002010, value: 0x00000005
Debug: 453 9867 target.c:2600 target_read_u32(): address: 0x52002010, value: 0x00000005
Debug: 454 9882 target.c:2600 target_read_u32(): address: 0x52002010, value: 0x00000005
Debug: 455 9897 target.c:2600 target_read_u32(): address: 0x52002010, value: 0x00000005
Debug: 456 9912 target.c:2600 target_read_u32(): address: 0x52002010, value: 0x00000005
Debug: 457 9928 target.c:2600 target_read_u32(): address: 0x52002010, value: 0x00000005
Debug: 458 9943 target.c:2600 target_read_u32(): address: 0x52002010, value: 0x00000005
Debug: 459 9960 target.c:2600 target_read_u32(): address: 0x52002010, value: 0x00000005
Debug: 460 9975 target.c:2600 target_read_u32(): address: 0x52002010, value: 0x00000005
Debug: 461 9991 target.c:2600 target_read_u32(): address: 0x52002010, value: 0x00000005
Debug: 462 10007 target.c:2600 target_read_u32(): address: 0x52002010, value: 0x00000005
Debug: 463 10021 target.c:2600 target_read_u32(): address: 0x52002010, value: 0x00000005
Debug: 464 10036 target.c:2600 target_read_u32(): address: 0x52002010, value: 0x00000005
Debug: 465 10051 target.c:2600 target_read_u32(): address: 0x52002010, value: 0x00000005
Debug: 466 10067 target.c:2600 target_read_u32(): address: 0x52002010, value: 0x00000005
Debug: 467 10082 target.c:2600 target_read_u32(): address: 0x52002010, value: 0x00000005
Debug: 468 10097 target.c:2600 target_read_u32(): address: 0x52002010, value: 0x00000005
Debug: 469 10113 target.c:2600 target_read_u32(): address: 0x52002010, value: 0x00000005
Debug: 470 10129 target.c:2600 target_read_u32(): address: 0x52002010, value: 0x00000005
Debug: 471 10145 target.c:2600 target_read_u32(): address: 0x52002010, value: 0x00000005
Debug: 472 10159 target.c:2600 target_read_u32(): address: 0x52002010, value: 0x00000005
Debug: 473 10175 target.c:2600 target_read_u32(): address: 0x52002010, value: 0x00000005
Debug: 474 10191 target.c:2600 target_read_u32(): address: 0x52002010, value: 0x00000005
Debug: 475 10205 target.c:2600 target_read_u32(): address: 0x52002010, value: 0x00000005
Debug: 476 10221 target.c:2600 target_read_u32(): address: 0x52002010, value: 0x00010000
Debug: 477 10221 stm32h7x.c:490 stm32x_erase(): erase sector 1
Debug: 478 10221 target.c:2688 target_write_u32(): address: 0x5200200c, value: 0x00000134
Debug: 479 10222 target.c:2688 target_write_u32(): address: 0x5200200c, value: 0x000001b4
Debug: 480 10223 target.c:2600 target_read_u32(): address: 0x52002010, value: 0x00010005
Debug: 481 10237 target.c:2600 target_read_u32(): address: 0x52002010, value: 0x00010005
Debug: 482 10252 target.c:2600 target_read_u32(): address: 0x52002010, value: 0x00010005
Debug: 483 10268 target.c:2600 target_read_u32(): address: 0x52002010, value: 0x00010005
Debug: 484 10285 target.c:2600 target_read_u32(): address: 0x52002010, value: 0x00010005
Debug: 485 10298 target.c:2600 target_read_u32(): address: 0x52002010, value: 0x00010005
Debug: 486 10313 target.c:2600 target_read_u32(): address: 0x52002010, value: 0x00010005
Debug: 487 10328 target.c:2600 target_read_u32(): address: 0x52002010, value: 0x00010005
Debug: 488 10343 target.c:2600 target_read_u32(): address: 0x52002010, value: 0x00010005
Debug: 489 10359 target.c:2600 target_read_u32(): address: 0x52002010, value: 0x00010005
Debug: 490 10373 target.c:2600 target_read_u32(): address: 0x52002010, value: 0x00010005
Debug: 491 10389 target.c:2600 target_read_u32(): address: 0x52002010, value: 0x00010005
Debug: 492 10406 target.c:2600 target_read_u32(): address: 0x52002010, value: 0x00010005
Debug: 493 10420 target.c:2600 target_read_u32(): address: 0x52002010, value: 0x00010005
Debug: 494 10437 target.c:2600 target_read_u32(): address: 0x52002010, value: 0x00010005
Debug: 495 10452 target.c:2600 target_read_u32(): address: 0x52002010, value: 0x00010005
Debug: 496 10467 target.c:2600 target_read_u32(): address: 0x52002010, value: 0x00010005
Debug: 497 10483 target.c:2600 target_read_u32(): address: 0x52002010, value: 0x00010005
Debug: 498 10498 target.c:2600 target_read_u32(): address: 0x52002010, value: 0x00010005
Debug: 499 10513 target.c:2600 target_read_u32(): address: 0x52002010, value: 0x00010005
Debug: 500 10528 target.c:2600 target_read_u32(): address: 0x52002010, value: 0x00010005
Debug: 501 10544 target.c:2600 target_read_u32(): address: 0x52002010, value: 0x00010005
Debug: 502 10560 target.c:2600 target_read_u32(): address: 0x52002010, value: 0x00010005
Debug: 503 10575 target.c:2600 target_read_u32(): address: 0x52002010, value: 0x00010005
Debug: 504 10590 target.c:2600 target_read_u32(): address: 0x52002010, value: 0x00010005
Debug: 505 10606 target.c:2600 target_read_u32(): address: 0x52002010, value: 0x00010005
Debug: 506 10621 target.c:2600 target_read_u32(): address: 0x52002010, value: 0x00010005
Debug: 507 10638 target.c:2600 target_read_u32(): address: 0x52002010, value: 0x00010005
Debug: 508 10653 target.c:2600 target_read_u32(): address: 0x52002010, value: 0x00010005
Debug: 509 10668 target.c:2600 target_read_u32(): address: 0x52002010, value: 0x00010005
Debug: 510 10684 target.c:2600 target_read_u32(): address: 0x52002010, value: 0x00010005
Debug: 511 10699 target.c:2600 target_read_u32(): address: 0x52002010, value: 0x00010005
Debug: 512 10714 target.c:2600 target_read_u32(): address: 0x52002010, value: 0x00010005
Debug: 513 10730 target.c:2600 target_read_u32(): address: 0x52002010, value: 0x00010005
Debug: 514 10747 target.c:2600 target_read_u32(): address: 0x52002010, value: 0x00010005
Debug: 515 10761 target.c:2600 target_read_u32(): address: 0x52002010, value: 0x00010005
Debug: 516 10778 target.c:2600 target_read_u32(): address: 0x52002010, value: 0x00010005
Debug: 517 10793 target.c:2600 target_read_u32(): address: 0x52002010, value: 0x00010005
Debug: 518 10808 target.c:2600 target_read_u32(): address: 0x52002010, value: 0x00010005
Debug: 519 10825 target.c:2600 target_read_u32(): address: 0x52002010, value: 0x00010005
Debug: 520 10840 target.c:2600 target_read_u32(): address: 0x52002010, value: 0x00010005
Debug: 521 10856 target.c:2600 target_read_u32(): address: 0x52002010, value: 0x00010005
Debug: 522 10871 target.c:2600 target_read_u32(): address: 0x52002010, value: 0x00010005
Debug: 523 10888 target.c:2600 target_read_u32(): address: 0x52002010, value: 0x00010005
Debug: 524 10903 target.c:2600 target_read_u32(): address: 0x52002010, value: 0x00010005
Debug: 525 10919 target.c:2600 target_read_u32(): address: 0x52002010, value: 0x00010005
Debug: 526 10935 target.c:2600 target_read_u32(): address: 0x52002010, value: 0x00010005
Debug: 527 10951 target.c:2600 target_read_u32(): address: 0x52002010, value: 0x00010005
Debug: 528 10967 target.c:2600 target_read_u32(): address: 0x52002010, value: 0x00010005
Debug: 529 10982 target.c:2600 target_read_u32(): address: 0x52002010, value: 0x00010005
Debug: 530 10998 target.c:2600 target_read_u32(): address: 0x52002010, value: 0x00010005
Debug: 531 11014 target.c:2600 target_read_u32(): address: 0x52002010, value: 0x00010005
Debug: 532 11028 target.c:2600 target_read_u32(): address: 0x52002010, value: 0x00010005
Debug: 533 11044 target.c:2600 target_read_u32(): address: 0x52002010, value: 0x00010000
Debug: 534 11044 stm32h7x.c:490 stm32x_erase(): erase sector 2
Debug: 535 11044 target.c:2688 target_write_u32(): address: 0x5200200c, value: 0x00000234
Debug: 536 11044 target.c:2688 target_write_u32(): address: 0x5200200c, value: 0x000002b4
Debug: 537 11046 target.c:2600 target_read_u32(): address: 0x52002010, value: 0x00010005
Debug: 538 11058 target.c:2600 target_read_u32(): address: 0x52002010, value: 0x00010005
Debug: 539 11074 target.c:2600 target_read_u32(): address: 0x52002010, value: 0x00010005
Debug: 540 11089 target.c:2600 target_read_u32(): address: 0x52002010, value: 0x00010005
Debug: 541 11104 target.c:2600 target_read_u32(): address: 0x52002010, value: 0x00010005
Debug: 542 11121 target.c:2600 target_read_u32(): address: 0x52002010, value: 0x00010005
Debug: 543 11136 target.c:2600 target_read_u32(): address: 0x52002010, value: 0x00010005
Debug: 544 11152 target.c:2600 target_read_u32(): address: 0x52002010, value: 0x00010005
Debug: 545 11167 target.c:2600 target_read_u32(): address: 0x52002010, value: 0x00010005
Debug: 546 11182 target.c:2600 target_read_u32(): address: 0x52002010, value: 0x00010005
Debug: 547 11198 target.c:2600 target_read_u32(): address: 0x52002010, value: 0x00010005
Debug: 548 11214 target.c:2600 target_read_u32(): address: 0x52002010, value: 0x00010005
Debug: 549 11229 target.c:2600 target_read_u32(): address: 0x52002010, value: 0x00010005
Debug: 550 11245 target.c:2600 target_read_u32(): address: 0x52002010, value: 0x00010005
Debug: 551 11260 target.c:2600 target_read_u32(): address: 0x52002010, value: 0x00010005
Debug: 552 11276 target.c:2600 target_read_u32(): address: 0x52002010, value: 0x00010005
Debug: 553 11291 target.c:2600 target_read_u32(): address: 0x52002010, value: 0x00010005
Debug: 554 11306 target.c:2600 target_read_u32(): address: 0x52002010, value: 0x00010005
Debug: 555 11322 target.c:2600 target_read_u32(): address: 0x52002010, value: 0x00010005
Debug: 556 11338 target.c:2600 target_read_u32(): address: 0x52002010, value: 0x00010005
Debug: 557 11353 target.c:2600 target_read_u32(): address: 0x52002010, value: 0x00010005
Debug: 558 11369 target.c:2600 target_read_u32(): address: 0x52002010, value: 0x00010005
Debug: 559 11384 target.c:2600 target_read_u32(): address: 0x52002010, value: 0x00010005
Debug: 560 11399 target.c:2600 target_read_u32(): address: 0x52002010, value: 0x00010005
Debug: 561 11415 target.c:2600 target_read_u32(): address: 0x52002010, value: 0x00010005
Debug: 562 11430 target.c:2600 target_read_u32(): address: 0x52002010, value: 0x00010005
Debug: 563 11446 target.c:2600 target_read_u32(): address: 0x52002010, value: 0x00010005
Debug: 564 11461 target.c:2600 target_read_u32(): address: 0x52002010, value: 0x00010005
Debug: 565 11477 target.c:2600 target_read_u32(): address: 0x52002010, value: 0x00010005
Debug: 566 11492 target.c:2600 target_read_u32(): address: 0x52002010, value: 0x00010005
Debug: 567 11507 target.c:2600 target_read_u32(): address: 0x52002010, value: 0x00010005
Debug: 568 11522 target.c:2600 target_read_u32(): address: 0x52002010, value: 0x00010005
Debug: 569 11539 target.c:2600 target_read_u32(): address: 0x52002010, value: 0x00010005
Debug: 570 11554 target.c:2600 target_read_u32(): address: 0x52002010, value: 0x00010005
Debug: 571 11570 target.c:2600 target_read_u32(): address: 0x52002010, value: 0x00010005
Debug: 572 11586 target.c:2600 target_read_u32(): address: 0x52002010, value: 0x00010005
Debug: 573 11602 target.c:2600 target_read_u32(): address: 0x52002010, value: 0x00010005
Debug: 574 11617 target.c:2600 target_read_u32(): address: 0x52002010, value: 0x00010005
Debug: 575 11633 target.c:2600 target_read_u32(): address: 0x52002010, value: 0x00010005
Debug: 576 11649 target.c:2600 target_read_u32(): address: 0x52002010, value: 0x00010005
Debug: 577 11663 target.c:2600 target_read_u32(): address: 0x52002010, value: 0x00010005
Debug: 578 11678 target.c:2600 target_read_u32(): address: 0x52002010, value: 0x00010005
Debug: 579 11694 target.c:2600 target_read_u32(): address: 0x52002010, value: 0x00010005
Debug: 580 11710 target.c:2600 target_read_u32(): address: 0x52002010, value: 0x00010005
Debug: 581 11724 target.c:2600 target_read_u32(): address: 0x52002010, value: 0x00010005
Debug: 582 11740 target.c:2600 target_read_u32(): address: 0x52002010, value: 0x00010005
Debug: 583 11756 target.c:2600 target_read_u32(): address: 0x52002010, value: 0x00010005
Debug: 584 11770 target.c:2600 target_read_u32(): address: 0x52002010, value: 0x00010005
Debug: 585 11786 target.c:2600 target_read_u32(): address: 0x52002010, value: 0x00010005
Debug: 586 11803 target.c:2600 target_read_u32(): address: 0x52002010, value: 0x00010005
Debug: 587 11818 target.c:2600 target_read_u32(): address: 0x52002010, value: 0x00010005
Debug: 588 11835 target.c:2600 target_read_u32(): address: 0x52002010, value: 0x00010005
Debug: 589 11850 target.c:2600 target_read_u32(): address: 0x52002010, value: 0x00010005
Debug: 590 11866 target.c:2600 target_read_u32(): address: 0x52002010, value: 0x00010005
Debug: 591 11882 target.c:2600 target_read_u32(): address: 0x52002010, value: 0x00010000
Debug: 592 11882 stm32h7x.c:490 stm32x_erase(): erase sector 3
Debug: 593 11882 target.c:2688 target_write_u32(): address: 0x5200200c, value: 0x00000334
Debug: 594 11883 target.c:2688 target_write_u32(): address: 0x5200200c, value: 0x000003b4
Debug: 595 11884 target.c:2600 target_read_u32(): address: 0x52002010, value: 0x00010005
Debug: 596 11899 target.c:2600 target_read_u32(): address: 0x52002010, value: 0x00010005
Debug: 597 11913 target.c:2600 target_read_u32(): address: 0x52002010, value: 0x00010005
Debug: 598 11929 target.c:2600 target_read_u32(): address: 0x52002010, value: 0x00010005
Debug: 599 11944 target.c:2600 target_read_u32(): address: 0x52002010, value: 0x00010005
Debug: 600 11959 target.c:2600 target_read_u32(): address: 0x52002010, value: 0x00010005
Debug: 601 11975 target.c:2600 target_read_u32(): address: 0x52002010, value: 0x00010005
Debug: 602 11991 target.c:2600 target_read_u32(): address: 0x52002010, value: 0x00010005
Debug: 603 12006 target.c:2600 target_read_u32(): address: 0x52002010, value: 0x00010005
Debug: 604 12022 target.c:2600 target_read_u32(): address: 0x52002010, value: 0x00010005
Debug: 605 12037 target.c:2600 target_read_u32(): address: 0x52002010, value: 0x00010005
Debug: 606 12052 target.c:2600 target_read_u32(): address: 0x52002010, value: 0x00010005
Debug: 607 12068 target.c:2600 target_read_u32(): address: 0x52002010, value: 0x00010005
Debug: 608 12083 target.c:2600 target_read_u32(): address: 0x52002010, value: 0x00010005
Debug: 609 12099 target.c:2600 target_read_u32(): address: 0x52002010, value: 0x00010005
Debug: 610 12114 target.c:2600 target_read_u32(): address: 0x52002010, value: 0x00010005
Debug: 611 12130 target.c:2600 target_read_u32(): address: 0x52002010, value: 0x00010005
Debug: 612 12144 target.c:2600 target_read_u32(): address: 0x52002010, value: 0x00010005
Debug: 613 12161 target.c:2600 target_read_u32(): address: 0x52002010, value: 0x00010005
Debug: 614 12176 target.c:2600 target_read_u32(): address: 0x52002010, value: 0x00010005
Debug: 615 12191 target.c:2600 target_read_u32(): address: 0x52002010, value: 0x00010005
Debug: 616 12207 target.c:2600 target_read_u32(): address: 0x52002010, value: 0x00010005
Debug: 617 12223 target.c:2600 target_read_u32(): address: 0x52002010, value: 0x00010005
Debug: 618 12238 target.c:2600 target_read_u32(): address: 0x52002010, value: 0x00010005
Debug: 619 12253 target.c:2600 target_read_u32(): address: 0x52002010, value: 0x00010005
Debug: 620 12268 target.c:2600 target_read_u32(): address: 0x52002010, value: 0x00010005
Debug: 621 12283 target.c:2600 target_read_u32(): address: 0x52002010, value: 0x00010005
Debug: 622 12298 target.c:2600 target_read_u32(): address: 0x52002010, value: 0x00010005
Debug: 623 12315 target.c:2600 target_read_u32(): address: 0x52002010, value: 0x00010005
Debug: 624 12330 target.c:2600 target_read_u32(): address: 0x52002010, value: 0x00010005
Debug: 625 12345 target.c:2600 target_read_u32(): address: 0x52002010, value: 0x00010005
Debug: 626 12360 target.c:2600 target_read_u32(): address: 0x52002010, value: 0x00010005
Debug: 627 12376 target.c:2600 target_read_u32(): address: 0x52002010, value: 0x00010005
Debug: 628 12392 target.c:2600 target_read_u32(): address: 0x52002010, value: 0x00010005
Debug: 629 12408 target.c:2600 target_read_u32(): address: 0x52002010, value: 0x00010005
Debug: 630 12423 target.c:2600 target_read_u32(): address: 0x52002010, value: 0x00010005
Debug: 631 12440 target.c:2600 target_read_u32(): address: 0x52002010, value: 0x00010005
Debug: 632 12454 target.c:2600 target_read_u32(): address: 0x52002010, value: 0x00010005
Debug: 633 12469 target.c:2600 target_read_u32(): address: 0x52002010, value: 0x00010005
Debug: 634 12485 target.c:2600 target_read_u32(): address: 0x52002010, value: 0x00010005
Debug: 635 12500 target.c:2600 target_read_u32(): address: 0x52002010, value: 0x00010005
Debug: 636 12516 target.c:2600 target_read_u32(): address: 0x52002010, value: 0x00010005
Debug: 637 12532 target.c:2600 target_read_u32(): address: 0x52002010, value: 0x00010005
Debug: 638 12547 target.c:2600 target_read_u32(): address: 0x52002010, value: 0x00010005
Debug: 639 12563 target.c:2600 target_read_u32(): address: 0x52002010, value: 0x00010005
Debug: 640 12580 target.c:2600 target_read_u32(): address: 0x52002010, value: 0x00010005
Debug: 641 12594 target.c:2600 target_read_u32(): address: 0x52002010, value: 0x00010005
Debug: 642 12609 target.c:2600 target_read_u32(): address: 0x52002010, value: 0x00010005
Debug: 643 12625 target.c:2600 target_read_u32(): address: 0x52002010, value: 0x00010005
Debug: 644 12640 target.c:2600 target_read_u32(): address: 0x52002010, value: 0x00010005
Debug: 645 12656 target.c:2600 target_read_u32(): address: 0x52002010, value: 0x00010005
Debug: 646 12671 target.c:2600 target_read_u32(): address: 0x52002010, value: 0x00010005
Debug: 647 12686 target.c:2600 target_read_u32(): address: 0x52002010, value: 0x00010000
Debug: 648 12686 stm32h7x.c:490 stm32x_erase(): erase sector 4
Debug: 649 12686 target.c:2688 target_write_u32(): address: 0x5200200c, value: 0x00000434
Debug: 650 12687 target.c:2688 target_write_u32(): address: 0x5200200c, value: 0x000004b4
Debug: 651 12688 target.c:2600 target_read_u32(): address: 0x52002010, value: 0x00010005
Debug: 652 12703 target.c:2600 target_read_u32(): address: 0x52002010, value: 0x00010005
Debug: 653 12718 target.c:2600 target_read_u32(): address: 0x52002010, value: 0x00010005
Debug: 654 12734 target.c:2600 target_read_u32(): address: 0x52002010, value: 0x00010005
Debug: 655 12750 target.c:2600 target_read_u32(): address: 0x52002010, value: 0x00010005
Debug: 656 12765 target.c:2600 target_read_u32(): address: 0x52002010, value: 0x00010005
Debug: 657 12781 target.c:2600 target_read_u32(): address: 0x52002010, value: 0x00010005
Debug: 658 12796 target.c:2600 target_read_u32(): address: 0x52002010, value: 0x00010005
Debug: 659 12811 target.c:2600 target_read_u32(): address: 0x52002010, value: 0x00010005
Debug: 660 12827 target.c:2600 target_read_u32(): address: 0x52002010, value: 0x00010005
Debug: 661 12842 target.c:2600 target_read_u32(): address: 0x52002010, value: 0x00010005
Debug: 662 12857 target.c:2600 target_read_u32(): address: 0x52002010, value: 0x00010005
Debug: 663 12873 target.c:2600 target_read_u32(): address: 0x52002010, value: 0x00010005
Debug: 664 12888 target.c:2600 target_read_u32(): address: 0x52002010, value: 0x00010005
Debug: 665 12904 target.c:2600 target_read_u32(): address: 0x52002010, value: 0x00010005
Debug: 666 12919 target.c:2600 target_read_u32(): address: 0x52002010, value: 0x00010005
Debug: 667 12935 target.c:2600 target_read_u32(): address: 0x52002010, value: 0x00010005
Debug: 668 12951 target.c:2600 target_read_u32(): address: 0x52002010, value: 0x00010005
Debug: 669 12966 target.c:2600 target_read_u32(): address: 0x52002010, value: 0x00010005
Debug: 670 12981 target.c:2600 target_read_u32(): address: 0x52002010, value: 0x00010005
Debug: 671 12998 target.c:2600 target_read_u32(): address: 0x52002010, value: 0x00010005
Debug: 672 13013 target.c:2600 target_read_u32(): address: 0x52002010, value: 0x00010005
Debug: 673 13029 target.c:2600 target_read_u32(): address: 0x52002010, value: 0x00010005
Debug: 674 13045 target.c:2600 target_read_u32(): address: 0x52002010, value: 0x00010005
Debug: 675 13061 target.c:2600 target_read_u32(): address: 0x52002010, value: 0x00010005
Debug: 676 13076 target.c:2600 target_read_u32(): address: 0x52002010, value: 0x00010005
Debug: 677 13092 target.c:2600 target_read_u32(): address: 0x52002010, value: 0x00010005
Debug: 678 13107 target.c:2600 target_read_u32(): address: 0x52002010, value: 0x00010005
Debug: 679 13124 target.c:2600 target_read_u32(): address: 0x52002010, value: 0x00010005
Debug: 680 13140 target.c:2600 target_read_u32(): address: 0x52002010, value: 0x00010005
Debug: 681 13155 target.c:2600 target_read_u32(): address: 0x52002010, value: 0x00010005
Debug: 682 13171 target.c:2600 target_read_u32(): address: 0x52002010, value: 0x00010005
Debug: 683 13187 target.c:2600 target_read_u32(): address: 0x52002010, value: 0x00010005
Debug: 684 13203 target.c:2600 target_read_u32(): address: 0x52002010, value: 0x00010005
Debug: 685 13218 target.c:2600 target_read_u32(): address: 0x52002010, value: 0x00010005
Debug: 686 13234 target.c:2600 target_read_u32(): address: 0x52002010, value: 0x00010005
Debug: 687 13250 target.c:2600 target_read_u32(): address: 0x52002010, value: 0x00010005
Debug: 688 13267 target.c:2600 target_read_u32(): address: 0x52002010, value: 0x00010005
Debug: 689 13280 target.c:2600 target_read_u32(): address: 0x52002010, value: 0x00010005
Debug: 690 13297 target.c:2600 target_read_u32(): address: 0x52002010, value: 0x00010005
Debug: 691 13312 target.c:2600 target_read_u32(): address: 0x52002010, value: 0x00010005
Debug: 692 13328 target.c:2600 target_read_u32(): address: 0x52002010, value: 0x00010005
Debug: 693 13344 target.c:2600 target_read_u32(): address: 0x52002010, value: 0x00010005
Debug: 694 13360 target.c:2600 target_read_u32(): address: 0x52002010, value: 0x00010005
Debug: 695 13377 target.c:2600 target_read_u32(): address: 0x52002010, value: 0x00010005
Debug: 696 13392 target.c:2600 target_read_u32(): address: 0x52002010, value: 0x00010005
Debug: 697 13406 target.c:2600 target_read_u32(): address: 0x52002010, value: 0x00010005
Debug: 698 13422 target.c:2600 target_read_u32(): address: 0x52002010, value: 0x00010005
Debug: 699 13438 target.c:2600 target_read_u32(): address: 0x52002010, value: 0x00010005
Debug: 700 13453 target.c:2600 target_read_u32(): address: 0x52002010, value: 0x00010005
Debug: 701 13469 target.c:2600 target_read_u32(): address: 0x52002010, value: 0x00010005
Debug: 702 13484 target.c:2600 target_read_u32(): address: 0x52002010, value: 0x00010005
Debug: 703 13501 target.c:2600 target_read_u32(): address: 0x52002010, value: 0x00010000
Debug: 704 13501 stm32h7x.c:490 stm32x_erase(): erase sector 5
Debug: 705 13501 target.c:2688 target_write_u32(): address: 0x5200200c, value: 0x00000534
Debug: 706 13501 target.c:2688 target_write_u32(): address: 0x5200200c, value: 0x000005b4
Debug: 707 13502 target.c:2600 target_read_u32(): address: 0x52002010, value: 0x00010005
Debug: 708 13517 target.c:2600 target_read_u32(): address: 0x52002010, value: 0x00010005
Debug: 709 13533 target.c:2600 target_read_u32(): address: 0x52002010, value: 0x00010005
Debug: 710 13548 target.c:2600 target_read_u32(): address: 0x52002010, value: 0x00010005
Debug: 711 13564 target.c:2600 target_read_u32(): address: 0x52002010, value: 0x00010005
Debug: 712 13580 target.c:2600 target_read_u32(): address: 0x52002010, value: 0x00010005
Debug: 713 13596 target.c:2600 target_read_u32(): address: 0x52002010, value: 0x00010005
Debug: 714 13612 target.c:2600 target_read_u32(): address: 0x52002010, value: 0x00010005
Debug: 715 13629 target.c:2600 target_read_u32(): address: 0x52002010, value: 0x00010005
Debug: 716 13643 target.c:2600 target_read_u32(): address: 0x52002010, value: 0x00010005
Debug: 717 13659 target.c:2600 target_read_u32(): address: 0x52002010, value: 0x00010005
Debug: 718 13675 target.c:2600 target_read_u32(): address: 0x52002010, value: 0x00010005
Debug: 719 13691 target.c:2600 target_read_u32(): address: 0x52002010, value: 0x00010005
Debug: 720 13706 target.c:2600 target_read_u32(): address: 0x52002010, value: 0x00010005
Debug: 721 13722 target.c:2600 target_read_u32(): address: 0x52002010, value: 0x00010005
Debug: 722 13736 target.c:2600 target_read_u32(): address: 0x52002010, value: 0x00010005
Debug: 723 13752 target.c:2600 target_read_u32(): address: 0x52002010, value: 0x00010005
Debug: 724 13767 target.c:2600 target_read_u32(): address: 0x52002010, value: 0x00010005
Debug: 725 13784 target.c:2600 target_read_u32(): address: 0x52002010, value: 0x00010005
Debug: 726 13799 target.c:2600 target_read_u32(): address: 0x52002010, value: 0x00010005
Debug: 727 13814 target.c:2600 target_read_u32(): address: 0x52002010, value: 0x00010005
Debug: 728 13831 target.c:2600 target_read_u32(): address: 0x52002010, value: 0x00010005
Debug: 729 13846 target.c:2600 target_read_u32(): address: 0x52002010, value: 0x00010005
Debug: 730 13861 target.c:2600 target_read_u32(): address: 0x52002010, value: 0x00010005
Debug: 731 13877 target.c:2600 target_read_u32(): address: 0x52002010, value: 0x00010005
Debug: 732 13892 target.c:2600 target_read_u32(): address: 0x52002010, value: 0x00010005
Debug: 733 13907 target.c:2600 target_read_u32(): address: 0x52002010, value: 0x00010005
Debug: 734 13923 target.c:2600 target_read_u32(): address: 0x52002010, value: 0x00010005
Debug: 735 13938 target.c:2600 target_read_u32(): address: 0x52002010, value: 0x00010005
Debug: 736 13953 target.c:2600 target_read_u32(): address: 0x52002010, value: 0x00010005
Debug: 737 13969 target.c:2600 target_read_u32(): address: 0x52002010, value: 0x00010005
Debug: 738 13984 target.c:2600 target_read_u32(): address: 0x52002010, value: 0x00010005
Debug: 739 14001 target.c:2600 target_read_u32(): address: 0x52002010, value: 0x00010005
Debug: 740 14015 target.c:2600 target_read_u32(): address: 0x52002010, value: 0x00010005
Debug: 741 14031 target.c:2600 target_read_u32(): address: 0x52002010, value: 0x00010005
Debug: 742 14047 target.c:2600 target_read_u32(): address: 0x52002010, value: 0x00010005
Debug: 743 14061 target.c:2600 target_read_u32(): address: 0x52002010, value: 0x00010005
Debug: 744 14076 target.c:2600 target_read_u32(): address: 0x52002010, value: 0x00010005
Debug: 745 14093 target.c:2600 target_read_u32(): address: 0x52002010, value: 0x00010005
Debug: 746 14108 target.c:2600 target_read_u32(): address: 0x52002010, value: 0x00010005
Debug: 747 14124 target.c:2600 target_read_u32(): address: 0x52002010, value: 0x00010005
Debug: 748 14140 target.c:2600 target_read_u32(): address: 0x52002010, value: 0x00010005
Debug: 749 14155 target.c:2600 target_read_u32(): address: 0x52002010, value: 0x00010005
Debug: 750 14170 target.c:2600 target_read_u32(): address: 0x52002010, value: 0x00010005
Debug: 751 14185 target.c:2600 target_read_u32(): address: 0x52002010, value: 0x00010005
Debug: 752 14200 target.c:2600 target_read_u32(): address: 0x52002010, value: 0x00010005
Debug: 753 14216 target.c:2600 target_read_u32(): address: 0x52002010, value: 0x00010005
Debug: 754 14232 target.c:2600 target_read_u32(): address: 0x52002010, value: 0x00010005
Debug: 755 14248 target.c:2600 target_read_u32(): address: 0x52002010, value: 0x00010005
Debug: 756 14264 target.c:2600 target_read_u32(): address: 0x52002010, value: 0x00010005
Debug: 757 14280 target.c:2600 target_read_u32(): address: 0x52002010, value: 0x00010005
Debug: 758 14295 target.c:2600 target_read_u32(): address: 0x52002010, value: 0x00010005
Debug: 759 14311 target.c:2600 target_read_u32(): address: 0x52002010, value: 0x00010000
Debug: 760 14311 stm32h7x.c:490 stm32x_erase(): erase sector 6
Debug: 761 14311 target.c:2688 target_write_u32(): address: 0x5200200c, value: 0x00000634
Debug: 762 14312 target.c:2688 target_write_u32(): address: 0x5200200c, value: 0x000006b4
Debug: 763 14313 target.c:2600 target_read_u32(): address: 0x52002010, value: 0x00010005
Debug: 764 14327 target.c:2600 target_read_u32(): address: 0x52002010, value: 0x00010005
Debug: 765 14343 target.c:2600 target_read_u32(): address: 0x52002010, value: 0x00010005
Debug: 766 14358 target.c:2600 target_read_u32(): address: 0x52002010, value: 0x00010005
Debug: 767 14375 target.c:2600 target_read_u32(): address: 0x52002010, value: 0x00010005
Debug: 768 14389 target.c:2600 target_read_u32(): address: 0x52002010, value: 0x00010005
Debug: 769 14404 target.c:2600 target_read_u32(): address: 0x52002010, value: 0x00010005
Debug: 770 14421 target.c:2600 target_read_u32(): address: 0x52002010, value: 0x00010005
Debug: 771 14437 target.c:2600 target_read_u32(): address: 0x52002010, value: 0x00010005
Debug: 772 14453 target.c:2600 target_read_u32(): address: 0x52002010, value: 0x00010005
Debug: 773 14469 target.c:2600 target_read_u32(): address: 0x52002010, value: 0x00010005
Debug: 774 14483 target.c:2600 target_read_u32(): address: 0x52002010, value: 0x00010005
Debug: 775 14499 target.c:2600 target_read_u32(): address: 0x52002010, value: 0x00010005
Debug: 776 14515 target.c:2600 target_read_u32(): address: 0x52002010, value: 0x00010005
Debug: 777 14530 target.c:2600 target_read_u32(): address: 0x52002010, value: 0x00010005
Debug: 778 14546 target.c:2600 target_read_u32(): address: 0x52002010, value: 0x00010005
Debug: 779 14562 target.c:2600 target_read_u32(): address: 0x52002010, value: 0x00010005
Debug: 780 14577 target.c:2600 target_read_u32(): address: 0x52002010, value: 0x00010005
Debug: 781 14593 target.c:2600 target_read_u32(): address: 0x52002010, value: 0x00010005
Debug: 782 14607 target.c:2600 target_read_u32(): address: 0x52002010, value: 0x00010005
Debug: 783 14623 target.c:2600 target_read_u32(): address: 0x52002010, value: 0x00010005
Debug: 784 14639 target.c:2600 target_read_u32(): address: 0x52002010, value: 0x00010005
Debug: 785 14655 target.c:2600 target_read_u32(): address: 0x52002010, value: 0x00010005
Debug: 786 14671 target.c:2600 target_read_u32(): address: 0x52002010, value: 0x00010005
Debug: 787 14686 target.c:2600 target_read_u32(): address: 0x52002010, value: 0x00010005
Debug: 788 14702 target.c:2600 target_read_u32(): address: 0x52002010, value: 0x00010005
Debug: 789 14717 target.c:2600 target_read_u32(): address: 0x52002010, value: 0x00010005
Debug: 790 14733 target.c:2600 target_read_u32(): address: 0x52002010, value: 0x00010005
Debug: 791 14747 target.c:2600 target_read_u32(): address: 0x52002010, value: 0x00010005
Debug: 792 14762 target.c:2600 target_read_u32(): address: 0x52002010, value: 0x00010005
Debug: 793 14778 target.c:2600 target_read_u32(): address: 0x52002010, value: 0x00010005
Debug: 794 14793 target.c:2600 target_read_u32(): address: 0x52002010, value: 0x00010005
Debug: 795 14810 target.c:2600 target_read_u32(): address: 0x52002010, value: 0x00010005
Debug: 796 14824 target.c:2600 target_read_u32(): address: 0x52002010, value: 0x00010005
Debug: 797 14840 target.c:2600 target_read_u32(): address: 0x52002010, value: 0x00010005
Debug: 798 14855 target.c:2600 target_read_u32(): address: 0x52002010, value: 0x00010005
Debug: 799 14871 target.c:2600 target_read_u32(): address: 0x52002010, value: 0x00010005
Debug: 800 14886 target.c:2600 target_read_u32(): address: 0x52002010, value: 0x00010005
Debug: 801 14903 target.c:2600 target_read_u32(): address: 0x52002010, value: 0x00010005
Debug: 802 14917 target.c:2600 target_read_u32(): address: 0x52002010, value: 0x00010005
Debug: 803 14932 target.c:2600 target_read_u32(): address: 0x52002010, value: 0x00010005
Debug: 804 14947 target.c:2600 target_read_u32(): address: 0x52002010, value: 0x00010005
Debug: 805 14963 target.c:2600 target_read_u32(): address: 0x52002010, value: 0x00010005
Debug: 806 14979 target.c:2600 target_read_u32(): address: 0x52002010, value: 0x00010005
Debug: 807 14995 target.c:2600 target_read_u32(): address: 0x52002010, value: 0x00010005
Debug: 808 15011 target.c:2600 target_read_u32(): address: 0x52002010, value: 0x00010005
Debug: 809 15027 target.c:2600 target_read_u32(): address: 0x52002010, value: 0x00010005
Debug: 810 15042 target.c:2600 target_read_u32(): address: 0x52002010, value: 0x00010005
Debug: 811 15058 target.c:2600 target_read_u32(): address: 0x52002010, value: 0x00010005
Debug: 812 15074 target.c:2600 target_read_u32(): address: 0x52002010, value: 0x00010005
Debug: 813 15090 target.c:2600 target_read_u32(): address: 0x52002010, value: 0x00010005
Debug: 814 15105 target.c:2600 target_read_u32(): address: 0x52002010, value: 0x00010005
Debug: 815 15120 target.c:2600 target_read_u32(): address: 0x52002010, value: 0x00010000
Debug: 816 15121 target.c:2688 target_write_u32(): address: 0x5200200c, value: 0x00000001
Debug: 817 15121 target.c:1815 target_call_event_callbacks(): target event 25 (gdb-flash-erase-end) for core stm32h7x.cpu0
Debug: 818 15121 gdb_server.c:391 gdb_log_outgoing_packet(): [stm32h7x.cpu0] sending packet: $OK#9a
Debug: 819 15122 gdb_server.c:375 gdb_log_incoming_packet(): [stm32h7x.cpu0] received packet: vFlashWrite:8000000:
Debug: 820 15122 gdb_server.c:391 gdb_log_outgoing_packet(): [stm32h7x.cpu0] sending packet: $OK#9a
Debug: 821 15124 gdb_server.c:368 gdb_log_incoming_packet(): [stm32h7x.cpu0] received packet: vFlashWrite:<binary-data-24-bytes>
Debug: 822 15124 gdb_server.c:391 gdb_log_outgoing_packet(): [stm32h7x.cpu0] sending packet: $OK#9a
Debug: 823 15127 gdb_server.c:368 gdb_log_incoming_packet(): [stm32h7x.cpu0] received packet: vFlashWrite:<binary-data-9-bytes>
Debug: 824 15127 gdb_server.c:391 gdb_log_outgoing_packet(): [stm32h7x.cpu0] sending packet: $OK#9a
Debug: 825 15129 gdb_server.c:368 gdb_log_incoming_packet(): [stm32h7x.cpu0] received packet: vFlashWrite:<binary-data-36-bytes>
Debug: 826 15129 gdb_server.c:391 gdb_log_outgoing_packet(): [stm32h7x.cpu0] sending packet: $OK#9a
Debug: 827 15131 gdb_server.c:368 gdb_log_incoming_packet(): [stm32h7x.cpu0] received packet: vFlashWrite:<binary-data-10-bytes>
Debug: 828 15131 gdb_server.c:391 gdb_log_outgoing_packet(): [stm32h7x.cpu0] sending packet: $OK#9a
Debug: 829 15132 gdb_server.c:368 gdb_log_incoming_packet(): [stm32h7x.cpu0] received packet: vFlashWrite:<binary-data-13-bytes>
Debug: 830 15132 gdb_server.c:391 gdb_log_outgoing_packet(): [stm32h7x.cpu0] sending packet: $OK#9a
Debug: 831 15134 gdb_server.c:375 gdb_log_incoming_packet(): [stm32h7x.cpu0] received packet: vFlashWrite:8013d90:
Debug: 832 15134 gdb_server.c:391 gdb_log_outgoing_packet(): [stm32h7x.cpu0] sending packet: $OK#9a
Debug: 833 15135 gdb_server.c:368 gdb_log_incoming_packet(): [stm32h7x.cpu0] received packet: vFlashWrite:<binary-data-96-bytes>
Debug: 834 15135 gdb_server.c:391 gdb_log_outgoing_packet(): [stm32h7x.cpu0] sending packet: $OK#9a
Debug: 835 15137 gdb_server.c:368 gdb_log_incoming_packet(): [stm32h7x.cpu0] received packet: vFlashWrite:<binary-data-16-bytes>
Debug: 836 15137 gdb_server.c:391 gdb_log_outgoing_packet(): [stm32h7x.cpu0] sending packet: $OK#9a
Debug: 837 15139 gdb_server.c:368 gdb_log_incoming_packet(): [stm32h7x.cpu0] received packet: vFlashWrite:<binary-data-86-bytes>
Debug: 838 15139 gdb_server.c:391 gdb_log_outgoing_packet(): [stm32h7x.cpu0] sending packet: $OK#9a
Debug: 839 15140 gdb_server.c:368 gdb_log_incoming_packet(): [stm32h7x.cpu0] received packet: vFlashWrite:<binary-data-19-bytes>
Debug: 840 15141 gdb_server.c:391 gdb_log_outgoing_packet(): [stm32h7x.cpu0] sending packet: $OK#9a
Debug: 841 15142 gdb_server.c:368 gdb_log_incoming_packet(): [stm32h7x.cpu0] received packet: vFlashWrite:<binary-data-20-bytes>
Debug: 842 15142 gdb_server.c:391 gdb_log_outgoing_packet(): [stm32h7x.cpu0] sending packet: $OK#9a
Debug: 843 15144 gdb_server.c:368 gdb_log_incoming_packet(): [stm32h7x.cpu0] received packet: vFlashWrite:<binary-data-34-bytes>
Debug: 844 15144 gdb_server.c:391 gdb_log_outgoing_packet(): [stm32h7x.cpu0] sending packet: $OK#9a
Debug: 845 15145 gdb_server.c:368 gdb_log_incoming_packet(): [stm32h7x.cpu0] received packet: vFlashWrite:<binary-data-38-bytes>
Debug: 846 15146 gdb_server.c:391 gdb_log_outgoing_packet(): [stm32h7x.cpu0] sending packet: $OK#9a
Debug: 847 15147 gdb_server.c:375 gdb_log_incoming_packet(): [stm32h7x.cpu0] received packet: vFlashWrite:80332e0:{h
Debug: 848 15147 gdb_server.c:391 gdb_log_outgoing_packet(): [stm32h7x.cpu0] sending packet: $OK#9a
Debug: 849 15149 gdb_server.c:368 gdb_log_incoming_packet(): [stm32h7x.cpu0] received packet: vFlashWrite:<binary-data-10-bytes>
Debug: 850 15149 gdb_server.c:391 gdb_log_outgoing_packet(): [stm32h7x.cpu0] sending packet: $OK#9a
Debug: 851 15151 gdb_server.c:375 gdb_log_incoming_packet(): [stm32h7x.cpu0] received packet: vFlashWrite:803b010:
Debug: 852 15151 gdb_server.c:391 gdb_log_outgoing_packet(): [stm32h7x.cpu0] sending packet: $OK#9a
Debug: 853 15152 gdb_server.c:368 gdb_log_incoming_packet(): [stm32h7x.cpu0] received packet: vFlashWrite:<binary-data-14-bytes>
Debug: 854 15152 gdb_server.c:391 gdb_log_outgoing_packet(): [stm32h7x.cpu0] sending packet: $OK#9a
Debug: 855 15153 gdb_server.c:375 gdb_log_incoming_packet(): [stm32h7x.cpu0] received packet: vFlashWrite:8042d90:
Debug: 856 15153 gdb_server.c:391 gdb_log_outgoing_packet(): [stm32h7x.cpu0] sending packet: $OK#9a
Debug: 857 15154 gdb_server.c:368 gdb_log_incoming_packet(): [stm32h7x.cpu0] received packet: vFlashWrite:<binary-data-44-bytes>
Debug: 858 15155 gdb_server.c:391 gdb_log_outgoing_packet(): [stm32h7x.cpu0] sending packet: $OK#9a
Debug: 859 15155 gdb_server.c:368 gdb_log_incoming_packet(): [stm32h7x.cpu0] received packet: vFlashWrite:<binary-data-20-bytes>
Debug: 860 15156 gdb_server.c:391 gdb_log_outgoing_packet(): [stm32h7x.cpu0] sending packet: $OK#9a
Debug: 861 15157 gdb_server.c:368 gdb_log_incoming_packet(): [stm32h7x.cpu0] received packet: vFlashWrite:<binary-data-12-bytes>
Debug: 862 15157 gdb_server.c:391 gdb_log_outgoing_packet(): [stm32h7x.cpu0] sending packet: $OK#9a
Debug: 863 15158 gdb_server.c:368 gdb_log_incoming_packet(): [stm32h7x.cpu0] received packet: vFlashWrite:<binary-data-14-bytes>
Debug: 864 15158 gdb_server.c:391 gdb_log_outgoing_packet(): [stm32h7x.cpu0] sending packet: $OK#9a
Debug: 865 15160 gdb_server.c:368 gdb_log_incoming_packet(): [stm32h7x.cpu0] received packet: vFlashWrite:<binary-data-20-bytes>
Debug: 866 15160 gdb_server.c:391 gdb_log_outgoing_packet(): [stm32h7x.cpu0] sending packet: $OK#9a
Debug: 867 15161 gdb_server.c:368 gdb_log_incoming_packet(): [stm32h7x.cpu0] received packet: vFlashWrite:<binary-data-18-bytes>
Debug: 868 15162 gdb_server.c:391 gdb_log_outgoing_packet(): [stm32h7x.cpu0] sending packet: $OK#9a
Debug: 869 15163 gdb_server.c:368 gdb_log_incoming_packet(): [stm32h7x.cpu0] received packet: vFlashWrite:<binary-data-22-bytes>
Debug: 870 15164 gdb_server.c:391 gdb_log_outgoing_packet(): [stm32h7x.cpu0] sending packet: $OK#9a
Debug: 871 15165 gdb_server.c:368 gdb_log_incoming_packet(): [stm32h7x.cpu0] received packet: vFlashWrite:<binary-data-126-bytes>
Debug: 872 15166 gdb_server.c:391 gdb_log_outgoing_packet(): [stm32h7x.cpu0] sending packet: $OK#9a
Debug: 873 15167 gdb_server.c:368 gdb_log_incoming_packet(): [stm32h7x.cpu0] received packet: vFlashWrite:<binary-data-24-bytes>
Debug: 874 15168 gdb_server.c:391 gdb_log_outgoing_packet(): [stm32h7x.cpu0] sending packet: $OK#9a
Debug: 875 15170 gdb_server.c:368 gdb_log_incoming_packet(): [stm32h7x.cpu0] received packet: vFlashWrite:<binary-data-22-bytes>
Debug: 876 15171 gdb_server.c:391 gdb_log_outgoing_packet(): [stm32h7x.cpu0] sending packet: $OK#9a
Debug: 877 15172 gdb_server.c:368 gdb_log_incoming_packet(): [stm32h7x.cpu0] received packet: vFlashWrite:<binary-data-40-bytes>
Debug: 878 15173 gdb_server.c:391 gdb_log_outgoing_packet(): [stm32h7x.cpu0] sending packet: $OK#9a
Debug: 879 15174 gdb_server.c:368 gdb_log_incoming_packet(): [stm32h7x.cpu0] received packet: vFlashWrite:<binary-data-10-bytes>
Debug: 880 15174 gdb_server.c:391 gdb_log_outgoing_packet(): [stm32h7x.cpu0] sending packet: $OK#9a
Debug: 881 15176 gdb_server.c:368 gdb_log_incoming_packet(): [stm32h7x.cpu0] received packet: vFlashWrite:<binary-data-32-bytes>
Debug: 882 15176 gdb_server.c:391 gdb_log_outgoing_packet(): [stm32h7x.cpu0] sending packet: $OK#9a
Debug: 883 15177 gdb_server.c:368 gdb_log_incoming_packet(): [stm32h7x.cpu0] received packet: vFlashWrite:<binary-data-12-bytes>
Debug: 884 15177 gdb_server.c:391 gdb_log_outgoing_packet(): [stm32h7x.cpu0] sending packet: $OK#9a
Debug: 885 15179 gdb_server.c:368 gdb_log_incoming_packet(): [stm32h7x.cpu0] received packet: vFlashWrite:<binary-data-137-bytes>
Debug: 886 15179 gdb_server.c:391 gdb_log_outgoing_packet(): [stm32h7x.cpu0] sending packet: $OK#9a
Debug: 887 15181 gdb_server.c:368 gdb_log_incoming_packet(): [stm32h7x.cpu0] received packet: vFlashWrite:<binary-data-34-bytes>
Debug: 888 15182 gdb_server.c:391 gdb_log_outgoing_packet(): [stm32h7x.cpu0] sending packet: $OK#9a
Debug: 889 15184 gdb_server.c:368 gdb_log_incoming_packet(): [stm32h7x.cpu0] received packet: vFlashWrite:<binary-data-36-bytes>
Debug: 890 15185 gdb_server.c:391 gdb_log_outgoing_packet(): [stm32h7x.cpu0] sending packet: $OK#9a
Debug: 891 15187 gdb_server.c:368 gdb_log_incoming_packet(): [stm32h7x.cpu0] received packet: vFlashWrite:<binary-data-10-bytes>
Debug: 892 15188 gdb_server.c:391 gdb_log_outgoing_packet(): [stm32h7x.cpu0] sending packet: $OK#9a
Debug: 893 15189 gdb_server.c:368 gdb_log_incoming_packet(): [stm32h7x.cpu0] received packet: vFlashWrite:<binary-data-40-bytes>
Debug: 894 15190 gdb_server.c:391 gdb_log_outgoing_packet(): [stm32h7x.cpu0] sending packet: $OK#9a
Debug: 895 15191 gdb_server.c:368 gdb_log_incoming_packet(): [stm32h7x.cpu0] received packet: vFlashWrite:<binary-data-20-bytes>
Debug: 896 15192 gdb_server.c:391 gdb_log_outgoing_packet(): [stm32h7x.cpu0] sending packet: $OK#9a
Debug: 897 15194 gdb_server.c:368 gdb_log_incoming_packet(): [stm32h7x.cpu0] received packet: vFlashWrite:<binary-data-19-bytes>
Debug: 898 15195 gdb_server.c:391 gdb_log_outgoing_packet(): [stm32h7x.cpu0] sending packet: $OK#9a
Debug: 899 15197 gdb_server.c:368 gdb_log_incoming_packet(): [stm32h7x.cpu0] received packet: vFlashWrite:<binary-data-106-bytes>
Debug: 900 15198 gdb_server.c:391 gdb_log_outgoing_packet(): [stm32h7x.cpu0] sending packet: $OK#9a
Debug: 901 15199 gdb_server.c:368 gdb_log_incoming_packet(): [stm32h7x.cpu0] received packet: vFlashWrite:<binary-data-12-bytes>
Debug: 902 15200 gdb_server.c:391 gdb_log_outgoing_packet(): [stm32h7x.cpu0] sending packet: $OK#9a
Debug: 903 15202 gdb_server.c:368 gdb_log_incoming_packet(): [stm32h7x.cpu0] received packet: vFlashWrite:<binary-data-18-bytes>
Debug: 904 15202 gdb_server.c:391 gdb_log_outgoing_packet(): [stm32h7x.cpu0] sending packet: $OK#9a
Debug: 905 15203 gdb_server.c:368 gdb_log_incoming_packet(): [stm32h7x.cpu0] received packet: vFlashWrite:<binary-data-32-bytes>
Debug: 906 15204 gdb_server.c:391 gdb_log_outgoing_packet(): [stm32h7x.cpu0] sending packet: $OK#9a
Debug: 907 15206 gdb_server.c:368 gdb_log_incoming_packet(): [stm32h7x.cpu0] received packet: vFlashWrite:<binary-data-42-bytes>
Debug: 908 15206 gdb_server.c:391 gdb_log_outgoing_packet(): [stm32h7x.cpu0] sending packet: $OK#9a
Debug: 909 15209 gdb_server.c:368 gdb_log_incoming_packet(): [stm32h7x.cpu0] received packet: vFlashWrite:<binary-data-216-bytes>
Debug: 910 15210 gdb_server.c:391 gdb_log_outgoing_packet(): [stm32h7x.cpu0] sending packet: $OK#9a
Debug: 911 15211 gdb_server.c:368 gdb_log_incoming_packet(): [stm32h7x.cpu0] received packet: vFlashWrite:<binary-data-328-bytes>
Debug: 912 15213 gdb_server.c:391 gdb_log_outgoing_packet(): [stm32h7x.cpu0] sending packet: $OK#9a
Debug: 913 15214 gdb_server.c:368 gdb_log_incoming_packet(): [stm32h7x.cpu0] received packet: vFlashWrite:<binary-data-440-bytes>
Debug: 914 15216 gdb_server.c:391 gdb_log_outgoing_packet(): [stm32h7x.cpu0] sending packet: $OK#9a
Debug: 915 15217 gdb_server.c:368 gdb_log_incoming_packet(): [stm32h7x.cpu0] received packet: vFlashWrite:<binary-data-824-bytes>
Debug: 916 15218 gdb_server.c:391 gdb_log_outgoing_packet(): [stm32h7x.cpu0] sending packet: $OK#9a
Debug: 917 15219 gdb_server.c:368 gdb_log_incoming_packet(): [stm32h7x.cpu0] received packet: vFlashWrite:<binary-data-952-bytes>
Debug: 918 15220 gdb_server.c:391 gdb_log_outgoing_packet(): [stm32h7x.cpu0] sending packet: $OK#9a
Debug: 919 15222 gdb_server.c:368 gdb_log_incoming_packet(): [stm32h7x.cpu0] received packet: vFlashWrite:<binary-data-56-bytes>
Debug: 920 15223 gdb_server.c:391 gdb_log_outgoing_packet(): [stm32h7x.cpu0] sending packet: $OK#9a
Debug: 921 15225 gdb_server.c:368 gdb_log_incoming_packet(): [stm32h7x.cpu0] received packet: vFlashWrite:<binary-data-2334-bytes>
Debug: 922 15226 gdb_server.c:391 gdb_log_outgoing_packet(): [stm32h7x.cpu0] sending packet: $OK#9a
Debug: 923 15227 gdb_server.c:368 gdb_log_incoming_packet(): [stm32h7x.cpu0] received packet: vFlashWrite:<binary-data-1270-bytes>
Debug: 924 15229 gdb_server.c:391 gdb_log_outgoing_packet(): [stm32h7x.cpu0] sending packet: $OK#9a
Debug: 925 15231 gdb_server.c:368 gdb_log_incoming_packet(): [stm32h7x.cpu0] received packet: vFlashWrite:<binary-data-1294-bytes>
Debug: 926 15232 gdb_server.c:391 gdb_log_outgoing_packet(): [stm32h7x.cpu0] sending packet: $OK#9a
Debug: 927 15234 gdb_server.c:368 gdb_log_incoming_packet(): [stm32h7x.cpu0] received packet: vFlashWrite:<binary-data-570-bytes>
Debug: 928 15235 gdb_server.c:391 gdb_log_outgoing_packet(): [stm32h7x.cpu0] sending packet: $OK#9a
Debug: 929 15236 gdb_server.c:368 gdb_log_incoming_packet(): [stm32h7x.cpu0] received packet: vFlashWrite:<binary-data-658-bytes>
Debug: 930 15237 gdb_server.c:391 gdb_log_outgoing_packet(): [stm32h7x.cpu0] sending packet: $OK#9a
Debug: 931 15238 gdb_server.c:375 gdb_log_incoming_packet(): [stm32h7x.cpu0] received packet: vFlashWrite:80d8310:nored.
Debug: 932 15239 gdb_server.c:391 gdb_log_outgoing_packet(): [stm32h7x.cpu0] sending packet: $OK#9a
Debug: 933 15240 gdb_server.c:375 gdb_log_incoming_packet(): [stm32h7x.cpu0] received packet: vFlashWrite:80dc2c0:CFSR_UFSR:0x%02X 
Debug: 934 15241 gdb_server.c:391 gdb_log_outgoing_packet(): [stm32h7x.cpu0] sending packet: $OK#9a
Debug: 935 15241 gdb_server.c:368 gdb_log_incoming_packet(): [stm32h7x.cpu0] received packet: vFlashWrite:<binary-data-13-bytes>
Debug: 936 15241 gdb_server.c:391 gdb_log_outgoing_packet(): [stm32h7x.cpu0] sending packet: $OK#9a
Debug: 937 15242 gdb_server.c:368 gdb_log_incoming_packet(): [stm32h7x.cpu0] received packet: vFlashWrite:<binary-data-14-bytes>
Debug: 938 15242 gdb_server.c:391 gdb_log_outgoing_packet(): [stm32h7x.cpu0] sending packet: $OK#9a
Debug: 939 15243 gdb_server.c:368 gdb_log_incoming_packet(): [stm32h7x.cpu0] received packet: vFlashWrite:<binary-data-10-bytes>
Debug: 940 15243 gdb_server.c:391 gdb_log_outgoing_packet(): [stm32h7x.cpu0] sending packet: $OK#9a
Debug: 941 15244 gdb_server.c:375 gdb_log_incoming_packet(): [stm32h7x.cpu0] received packet: vFlashWrite:80de2ec:
Debug: 942 15246 gdb_server.c:391 gdb_log_outgoing_packet(): [stm32h7x.cpu0] sending packet: $OK#9a
Debug: 943 15246 gdb_server.c:375 gdb_log_incoming_packet(): [stm32h7x.cpu0] received packet: vFlashDone
Debug: 944 15246 target.c:1815 target_call_event_callbacks(): target event 26 (gdb-flash-write-start) for core stm32h7x.cpu0
Info : 945 15247 core.c:843 flash_write_unlock_verify(): Padding image section 0 at 0x08000298 with 40 bytes
Info : 946 15247 core.c:882 flash_write_unlock_verify(): Padding image section 1 at 0x080df650 with 16 bytes (bank write end alignment)
Debug: 947 15247 core.c:939 flash_write_unlock_verify(): image_read_section: section = 0, t_section_num = 0, section_offset = 0, buffer_idx = 0, size_read = 664
Debug: 948 15247 core.c:939 flash_write_unlock_verify(): image_read_section: section = 1, t_section_num = 1, section_offset = 0, buffer_idx = 704, size_read = 914320
Debug: 949 15248 target.c:2600 target_read_u32(): address: 0x5200200c, value: 0x00000001
Debug: 950 15248 target.c:2688 target_write_u32(): address: 0x52002004, value: 0x45670123
Debug: 951 15248 target.c:2688 target_write_u32(): address: 0x52002004, value: 0xcdef89ab
Debug: 952 15249 target.c:2600 target_read_u32(): address: 0x5200200c, value: 0x00000000
Debug: 953 15249 target.c:2020 target_alloc_working_area_try(): MMU disabled, using physical address for working memory 0x20000000
Debug: 954 15249 target.c:2074 target_alloc_working_area_try(): allocated new working area of 108 bytes at address 0x20000000
Debug: 955 15249 target.c:1941 print_wa_layout():  * 0x20000000-0x2000006b (108 bytes)
Debug: 956 15249 target.c:1941 print_wa_layout():    0x2000006c-0x2000ffff (65428 bytes)
Debug: 957 15249 target.c:2382 target_write_buffer(): writing buffer of 108 byte at 0x20000000
Debug: 958 15251 target.c:2074 target_alloc_working_area_try(): allocated new working area of 16392 bytes at address 0x2000006c
Debug: 959 15251 target.c:1941 print_wa_layout():  * 0x20000000-0x2000006b (108 bytes)
Debug: 960 15251 target.c:1941 print_wa_layout():  * 0x2000006c-0x20004073 (16392 bytes)
Debug: 961 15251 target.c:1941 print_wa_layout():    0x20004074-0x2000ffff (49036 bytes)
Debug: 962 15251 stm32h7x.c:604 stm32x_write_block(): target_alloc_working_area_try : buffer_size -> 0x4008
Debug: 963 15251 target.c:2688 target_write_u32(): address: 0x2000006c, value: 0x20000074
Debug: 964 15251 target.c:2688 target_write_u32(): address: 0x20000070, value: 0x20000074
Debug: 965 15252 target.c:1815 target_call_event_callbacks(): target event 3 (resume-start) for core stm32h7x.cpu0
Debug: 966 15252 armv7m.c:174 armv7m_restore_context():  
Debug: 967 15252 armv7m.c:441 armv7m_write_core_reg(): write pmsk_bpri_fltmsk_ctrl value 0x00000001
Debug: 968 15253 armv7m.c:441 armv7m_write_core_reg(): write xpsr value 0x01000000
Debug: 969 15253 armv7m.c:441 armv7m_write_core_reg(): write pc value 0x20000000
Debug: 970 15253 armv7m.c:441 armv7m_write_core_reg(): write r5 value 0x52002000
Debug: 971 15254 armv7m.c:441 armv7m_write_core_reg(): write r4 value 0x00000020
Debug: 972 15254 armv7m.c:441 armv7m_write_core_reg(): write r3 value 0x00006fb3
Debug: 973 15254 armv7m.c:441 armv7m_write_core_reg(): write r2 value 0x08000000
Debug: 974 15255 armv7m.c:441 armv7m_write_core_reg(): write r1 value 0x20004074
Debug: 975 15255 armv7m.c:441 armv7m_write_core_reg(): write r0 value 0x2000006c
Debug: 976 15256 target.c:1815 target_call_event_callbacks(): target event 18 (debug-resumed) for core stm32h7x.cpu0
Debug: 977 15256 cortex_m.c:1392 cortex_m_resume(): [stm32h7x.cpu0] debug resumed at 0x20000000
Debug: 978 15256 target.c:1815 target_call_event_callbacks(): target event 4 (resume-end) for core stm32h7x.cpu0
Debug: 979 15256 target.c:2600 target_read_u32(): address: 0x20000070, value: 0x20000074
Debug: 980 15256 target.c:1021 target_run_flash_async_algorithm(): offs 0x0 count 0x6fb3 wp 0x20000074 rp 0x20000074
Debug: 981 15256 target.c:2382 target_write_buffer(): writing buffer of 16352 byte at 0x20000074
Debug: 982 15434 target.c:2688 target_write_u32(): address: 0x2000006c, value: 0x20004054
Debug: 983 15435 target.c:2600 target_read_u32(): address: 0x20000070, value: 0x20000094
Debug: 984 15435 target.c:1021 target_run_flash_async_algorithm(): offs 0x3fe0 count 0x6db4 wp 0x20004054 rp 0x20000094
Debug: 985 15435 target.c:2382 target_write_buffer(): writing buffer of 32 byte at 0x20004054
Debug: 986 15436 target.c:2688 target_write_u32(): address: 0x2000006c, value: 0x20000074
Debug: 987 15437 target.c:2600 target_read_u32(): address: 0x20000070, value: 0x20000134
Debug: 988 15437 target.c:1021 target_run_flash_async_algorithm(): offs 0x4000 count 0x6db3 wp 0x20000074 rp 0x20000134
Debug: 989 15437 target.c:2382 target_write_buffer(): writing buffer of 160 byte at 0x20000074
Debug: 990 15438 target.c:2688 target_write_u32(): address: 0x2000006c, value: 0x20000114
Debug: 991 15439 target.c:2600 target_read_u32(): address: 0x20000070, value: 0x20000294
Debug: 992 15439 target.c:1021 target_run_flash_async_algorithm(): offs 0x40a0 count 0x6dae wp 0x20000114 rp 0x20000294
Debug: 993 15439 target.c:2382 target_write_buffer(): writing buffer of 352 byte at 0x20000114
Debug: 994 15443 target.c:2688 target_write_u32(): address: 0x2000006c, value: 0x20000274
Debug: 995 15445 target.c:2600 target_read_u32(): address: 0x20000070, value: 0x20000554
Debug: 996 15445 target.c:1021 target_run_flash_async_algorithm(): offs 0x4200 count 0x6da3 wp 0x20000274 rp 0x20000554
Debug: 997 15445 target.c:2382 target_write_buffer(): writing buffer of 704 byte at 0x20000274
Debug: 998 15453 target.c:2688 target_write_u32(): address: 0x2000006c, value: 0x20000534
Debug: 999 15455 target.c:2600 target_read_u32(): address: 0x20000070, value: 0x20000a34
Debug: 1000 15455 target.c:1021 target_run_flash_async_algorithm(): offs 0x44c0 count 0x6d8d wp 0x20000534 rp 0x20000a34
Debug: 1001 15455 target.c:2382 target_write_buffer(): writing buffer of 1248 byte at 0x20000534
Debug: 1002 15469 target.c:2688 target_write_u32(): address: 0x2000006c, value: 0x20000a14
Debug: 1003 15470 target.c:2600 target_read_u32(): address: 0x20000070, value: 0x200011b4
Debug: 1004 15470 target.c:1021 target_run_flash_async_algorithm(): offs 0x49a0 count 0x6d66 wp 0x20000a14 rp 0x200011b4
Debug: 1005 15470 target.c:2382 target_write_buffer(): writing buffer of 1920 byte at 0x20000a14
Debug: 1006 15491 target.c:2688 target_write_u32(): address: 0x2000006c, value: 0x20001194
Debug: 1007 15491 target.c:2600 target_read_u32(): address: 0x20000070, value: 0x20001c54
Debug: 1008 15491 target.c:1021 target_run_flash_async_algorithm(): offs 0x5120 count 0x6d2a wp 0x20001194 rp 0x20001c54
Debug: 1009 15492 target.c:2382 target_write_buffer(): writing buffer of 2720 byte at 0x20001194
Debug: 1010 15521 target.c:2688 target_write_u32(): address: 0x2000006c, value: 0x20001c34
Debug: 1011 15521 target.c:2600 target_read_u32(): address: 0x20000070, value: 0x20002b14
Debug: 1012 15521 target.c:1021 target_run_flash_async_algorithm(): offs 0x5bc0 count 0x6cd5 wp 0x20001c34 rp 0x20002b14
Debug: 1013 15521 target.c:2382 target_write_buffer(): writing buffer of 3776 byte at 0x20001c34
Debug: 1014 15562 target.c:2688 target_write_u32(): address: 0x2000006c, value: 0x20002af4
Debug: 1015 15564 target.c:2600 target_read_u32(): address: 0x20000070, value: 0x20003fd4
Debug: 1016 15564 target.c:1021 target_run_flash_async_algorithm(): offs 0x6a80 count 0x6c5f wp 0x20002af4 rp 0x20003fd4
Debug: 1017 15564 target.c:2382 target_write_buffer(): writing buffer of 5312 byte at 0x20002af4
Debug: 1018 15630 target.c:2688 target_write_u32(): address: 0x2000006c, value: 0x20003fb4
Debug: 1019 15631 target.c:2600 target_read_u32(): address: 0x20000070, value: 0x20002154
Debug: 1020 15632 target.c:1021 target_run_flash_async_algorithm(): offs 0x7f40 count 0x6bb9 wp 0x20003fb4 rp 0x20002154
Debug: 1021 15632 target.c:2382 target_write_buffer(): writing buffer of 192 byte at 0x20003fb4
Debug: 1022 15634 target.c:2688 target_write_u32(): address: 0x2000006c, value: 0x20000074
Debug: 1023 15635 target.c:2600 target_read_u32(): address: 0x20000070, value: 0x20002314
Debug: 1024 15635 target.c:1021 target_run_flash_async_algorithm(): offs 0x8000 count 0x6bb3 wp 0x20000074 rp 0x20002314
Debug: 1025 15635 target.c:2382 target_write_buffer(): writing buffer of 8832 byte at 0x20000074
Debug: 1026 15734 target.c:2688 target_write_u32(): address: 0x2000006c, value: 0x200022f4
Debug: 1027 15734 target.c:2600 target_read_u32(): address: 0x20000070, value: 0x20000094
Debug: 1028 15734 target.c:1021 target_run_flash_async_algorithm(): offs 0xa280 count 0x6a9f wp 0x200022f4 rp 0x20000094
Debug: 1029 15734 target.c:2382 target_write_buffer(): writing buffer of 7552 byte at 0x200022f4
Debug: 1030 15818 target.c:2688 target_write_u32(): address: 0x2000006c, value: 0x20000074
Debug: 1031 15819 target.c:2600 target_read_u32(): address: 0x20000070, value: 0x200022f4
Debug: 1032 15819 target.c:1021 target_run_flash_async_algorithm(): offs 0xc000 count 0x69b3 wp 0x20000074 rp 0x200022f4
Debug: 1033 15819 target.c:2382 target_write_buffer(): writing buffer of 8800 byte at 0x20000074
Debug: 1034 15921 target.c:2688 target_write_u32(): address: 0x2000006c, value: 0x200022d4
Debug: 1035 15922 target.c:2600 target_read_u32(): address: 0x20000070, value: 0x20000094
Debug: 1036 15922 target.c:1021 target_run_flash_async_algorithm(): offs 0xe260 count 0x68a0 wp 0x200022d4 rp 0x20000094
Debug: 1037 15922 target.c:2382 target_write_buffer(): writing buffer of 7584 byte at 0x200022d4
Debug: 1038 16010 target.c:2688 target_write_u32(): address: 0x2000006c, value: 0x20000074
Debug: 1039 16011 target.c:2600 target_read_u32(): address: 0x20000070, value: 0x200022f4
Debug: 1040 16011 target.c:1021 target_run_flash_async_algorithm(): offs 0x10000 count 0x67b3 wp 0x20000074 rp 0x200022f4
Debug: 1041 16011 target.c:2382 target_write_buffer(): writing buffer of 8800 byte at 0x20000074
Debug: 1042 16110 target.c:2688 target_write_u32(): address: 0x2000006c, value: 0x200022d4
Debug: 1043 16111 target.c:2600 target_read_u32(): address: 0x20000070, value: 0x20000094
Debug: 1044 16111 target.c:1021 target_run_flash_async_algorithm(): offs 0x12260 count 0x66a0 wp 0x200022d4 rp 0x20000094
Debug: 1045 16111 target.c:2382 target_write_buffer(): writing buffer of 7584 byte at 0x200022d4
Debug: 1046 16205 target.c:2688 target_write_u32(): address: 0x2000006c, value: 0x20000074
Debug: 1047 16206 target.c:2600 target_read_u32(): address: 0x20000070, value: 0x200022f4
Debug: 1048 16206 target.c:1021 target_run_flash_async_algorithm(): offs 0x14000 count 0x65b3 wp 0x20000074 rp 0x200022f4
Debug: 1049 16206 target.c:2382 target_write_buffer(): writing buffer of 8800 byte at 0x20000074
Debug: 1050 16316 target.c:2688 target_write_u32(): address: 0x2000006c, value: 0x200022d4
Debug: 1051 16317 target.c:2600 target_read_u32(): address: 0x20000070, value: 0x20000094
Debug: 1052 16317 target.c:1021 target_run_flash_async_algorithm(): offs 0x16260 count 0x64a0 wp 0x200022d4 rp 0x20000094
Debug: 1053 16317 target.c:2382 target_write_buffer(): writing buffer of 7584 byte at 0x200022d4
Debug: 1054 16408 target.c:2688 target_write_u32(): address: 0x2000006c, value: 0x20000074
Debug: 1055 16409 target.c:2600 target_read_u32(): address: 0x20000070, value: 0x200022f4
Debug: 1056 16409 target.c:1021 target_run_flash_async_algorithm(): offs 0x18000 count 0x63b3 wp 0x20000074 rp 0x200022f4
Debug: 1057 16409 target.c:2382 target_write_buffer(): writing buffer of 8800 byte at 0x20000074
Debug: 1058 16513 target.c:2688 target_write_u32(): address: 0x2000006c, value: 0x200022d4
Debug: 1059 16514 target.c:2600 target_read_u32(): address: 0x20000070, value: 0x20000094
Debug: 1060 16514 target.c:1021 target_run_flash_async_algorithm(): offs 0x1a260 count 0x62a0 wp 0x200022d4 rp 0x20000094
Debug: 1061 16514 target.c:2382 target_write_buffer(): writing buffer of 7584 byte at 0x200022d4
Debug: 1062 16619 target.c:2688 target_write_u32(): address: 0x2000006c, value: 0x20000074
Debug: 1063 16620 target.c:2600 target_read_u32(): address: 0x20000070, value: 0x200022f4
Debug: 1064 16620 target.c:1021 target_run_flash_async_algorithm(): offs 0x1c000 count 0x61b3 wp 0x20000074 rp 0x200022f4
Debug: 1065 16620 target.c:2382 target_write_buffer(): writing buffer of 8800 byte at 0x20000074
Debug: 1066 16736 target.c:2688 target_write_u32(): address: 0x2000006c, value: 0x200022d4
Debug: 1067 16737 target.c:2600 target_read_u32(): address: 0x20000070, value: 0x20000094
Debug: 1068 16737 target.c:1021 target_run_flash_async_algorithm(): offs 0x1e260 count 0x60a0 wp 0x200022d4 rp 0x20000094
Debug: 1069 16737 target.c:2382 target_write_buffer(): writing buffer of 7584 byte at 0x200022d4
Debug: 1070 16836 target.c:2688 target_write_u32(): address: 0x2000006c, value: 0x20000074
Debug: 1071 16837 target.c:2600 target_read_u32(): address: 0x20000070, value: 0x200022f4
Debug: 1072 16837 target.c:1021 target_run_flash_async_algorithm(): offs 0x20000 count 0x5fb3 wp 0x20000074 rp 0x200022f4
Debug: 1073 16837 target.c:2382 target_write_buffer(): writing buffer of 8800 byte at 0x20000074
Debug: 1074 16949 target.c:2688 target_write_u32(): address: 0x2000006c, value: 0x200022d4
Debug: 1075 16950 target.c:2600 target_read_u32(): address: 0x20000070, value: 0x20000094
Debug: 1076 16950 target.c:1021 target_run_flash_async_algorithm(): offs 0x22260 count 0x5ea0 wp 0x200022d4 rp 0x20000094
Debug: 1077 16950 target.c:2382 target_write_buffer(): writing buffer of 7584 byte at 0x200022d4
Debug: 1078 17046 target.c:2688 target_write_u32(): address: 0x2000006c, value: 0x20000074
Debug: 1079 17048 target.c:2600 target_read_u32(): address: 0x20000070, value: 0x200022f4
Debug: 1080 17048 target.c:1021 target_run_flash_async_algorithm(): offs 0x24000 count 0x5db3 wp 0x20000074 rp 0x200022f4
Debug: 1081 17048 target.c:2382 target_write_buffer(): writing buffer of 8800 byte at 0x20000074
Debug: 1082 17156 target.c:2688 target_write_u32(): address: 0x2000006c, value: 0x200022d4
Debug: 1083 17157 target.c:2600 target_read_u32(): address: 0x20000070, value: 0x20000094
Debug: 1084 17157 target.c:1021 target_run_flash_async_algorithm(): offs 0x26260 count 0x5ca0 wp 0x200022d4 rp 0x20000094
Debug: 1085 17158 target.c:2382 target_write_buffer(): writing buffer of 7584 byte at 0x200022d4
Debug: 1086 17259 target.c:2688 target_write_u32(): address: 0x2000006c, value: 0x20000074
Debug: 1087 17260 target.c:2600 target_read_u32(): address: 0x20000070, value: 0x200022f4
Debug: 1088 17260 target.c:1021 target_run_flash_async_algorithm(): offs 0x28000 count 0x5bb3 wp 0x20000074 rp 0x200022f4
Debug: 1089 17260 target.c:2382 target_write_buffer(): writing buffer of 8800 byte at 0x20000074
Debug: 1090 17368 target.c:2688 target_write_u32(): address: 0x2000006c, value: 0x200022d4
Debug: 1091 17369 target.c:2600 target_read_u32(): address: 0x20000070, value: 0x20000094
Debug: 1092 17369 target.c:1021 target_run_flash_async_algorithm(): offs 0x2a260 count 0x5aa0 wp 0x200022d4 rp 0x20000094
Debug: 1093 17369 target.c:2382 target_write_buffer(): writing buffer of 7584 byte at 0x200022d4
Debug: 1094 17461 target.c:2688 target_write_u32(): address: 0x2000006c, value: 0x20000074
Debug: 1095 17463 target.c:2600 target_read_u32(): address: 0x20000070, value: 0x200022f4
Debug: 1096 17463 target.c:1021 target_run_flash_async_algorithm(): offs 0x2c000 count 0x59b3 wp 0x20000074 rp 0x200022f4
Debug: 1097 17463 target.c:2382 target_write_buffer(): writing buffer of 8800 byte at 0x20000074
Debug: 1098 17567 target.c:2688 target_write_u32(): address: 0x2000006c, value: 0x200022d4
Debug: 1099 17568 target.c:2600 target_read_u32(): address: 0x20000070, value: 0x20000094
Debug: 1100 17568 target.c:1021 target_run_flash_async_algorithm(): offs 0x2e260 count 0x58a0 wp 0x200022d4 rp 0x20000094
Debug: 1101 17568 target.c:2382 target_write_buffer(): writing buffer of 7584 byte at 0x200022d4
Debug: 1102 17671 target.c:2688 target_write_u32(): address: 0x2000006c, value: 0x20000074
Debug: 1103 17672 target.c:2600 target_read_u32(): address: 0x20000070, value: 0x200022f4
Debug: 1104 17672 target.c:1021 target_run_flash_async_algorithm(): offs 0x30000 count 0x57b3 wp 0x20000074 rp 0x200022f4
Debug: 1105 17673 target.c:2382 target_write_buffer(): writing buffer of 8800 byte at 0x20000074
Debug: 1106 17784 target.c:2688 target_write_u32(): address: 0x2000006c, value: 0x200022d4
Debug: 1107 17786 target.c:2600 target_read_u32(): address: 0x20000070, value: 0x20000094
Debug: 1108 17786 target.c:1021 target_run_flash_async_algorithm(): offs 0x32260 count 0x56a0 wp 0x200022d4 rp 0x20000094
Debug: 1109 17786 target.c:2382 target_write_buffer(): writing buffer of 7584 byte at 0x200022d4
Debug: 1110 17874 target.c:2688 target_write_u32(): address: 0x2000006c, value: 0x20000074
Debug: 1111 17874 target.c:2600 target_read_u32(): address: 0x20000070, value: 0x200022f4
Debug: 1112 17874 target.c:1021 target_run_flash_async_algorithm(): offs 0x34000 count 0x55b3 wp 0x20000074 rp 0x200022f4
Debug: 1113 17874 target.c:2382 target_write_buffer(): writing buffer of 8800 byte at 0x20000074
Debug: 1114 17970 target.c:2688 target_write_u32(): address: 0x2000006c, value: 0x200022d4
Debug: 1115 17971 target.c:2600 target_read_u32(): address: 0x20000070, value: 0x20000094
Debug: 1116 17971 target.c:1021 target_run_flash_async_algorithm(): offs 0x36260 count 0x54a0 wp 0x200022d4 rp 0x20000094
Debug: 1117 17971 target.c:2382 target_write_buffer(): writing buffer of 7584 byte at 0x200022d4
Debug: 1118 18057 target.c:2688 target_write_u32(): address: 0x2000006c, value: 0x20000074
Debug: 1119 18058 target.c:2600 target_read_u32(): address: 0x20000070, value: 0x200022f4
Debug: 1120 18058 target.c:1021 target_run_flash_async_algorithm(): offs 0x38000 count 0x53b3 wp 0x20000074 rp 0x200022f4
Debug: 1121 18058 target.c:2382 target_write_buffer(): writing buffer of 8800 byte at 0x20000074
Debug: 1122 18155 target.c:2688 target_write_u32(): address: 0x2000006c, value: 0x200022d4
Debug: 1123 18156 target.c:2600 target_read_u32(): address: 0x20000070, value: 0x20000094
Debug: 1124 18156 target.c:1021 target_run_flash_async_algorithm(): offs 0x3a260 count 0x52a0 wp 0x200022d4 rp 0x20000094
Debug: 1125 18156 target.c:2382 target_write_buffer(): writing buffer of 7584 byte at 0x200022d4
Debug: 1126 18242 target.c:2688 target_write_u32(): address: 0x2000006c, value: 0x20000074
Debug: 1127 18242 target.c:2600 target_read_u32(): address: 0x20000070, value: 0x200022f4
Debug: 1128 18243 target.c:1021 target_run_flash_async_algorithm(): offs 0x3c000 count 0x51b3 wp 0x20000074 rp 0x200022f4
Debug: 1129 18243 target.c:2382 target_write_buffer(): writing buffer of 8800 byte at 0x20000074
Debug: 1130 18342 target.c:2688 target_write_u32(): address: 0x2000006c, value: 0x200022d4
Debug: 1131 18343 target.c:2600 target_read_u32(): address: 0x20000070, value: 0x20000094
Debug: 1132 18343 target.c:1021 target_run_flash_async_algorithm(): offs 0x3e260 count 0x50a0 wp 0x200022d4 rp 0x20000094
Debug: 1133 18343 target.c:2382 target_write_buffer(): writing buffer of 7584 byte at 0x200022d4
Debug: 1134 18422 target.c:2688 target_write_u32(): address: 0x2000006c, value: 0x20000074
Debug: 1135 18423 target.c:2600 target_read_u32(): address: 0x20000070, value: 0x20002314
Debug: 1136 18423 target.c:1021 target_run_flash_async_algorithm(): offs 0x40000 count 0x4fb3 wp 0x20000074 rp 0x20002314
Debug: 1137 18423 target.c:2382 target_write_buffer(): writing buffer of 8832 byte at 0x20000074
Debug: 1138 18522 target.c:2688 target_write_u32(): address: 0x2000006c, value: 0x200022f4
Debug: 1139 18523 target.c:2600 target_read_u32(): address: 0x20000070, value: 0x20000094
Debug: 1140 18523 target.c:1021 target_run_flash_async_algorithm(): offs 0x42280 count 0x4e9f wp 0x200022f4 rp 0x20000094
Debug: 1141 18523 target.c:2382 target_write_buffer(): writing buffer of 7552 byte at 0x200022f4
Debug: 1142 18608 target.c:2688 target_write_u32(): address: 0x2000006c, value: 0x20000074
Debug: 1143 18609 target.c:2600 target_read_u32(): address: 0x20000070, value: 0x20002314
Debug: 1144 18609 target.c:1021 target_run_flash_async_algorithm(): offs 0x44000 count 0x4db3 wp 0x20000074 rp 0x20002314
Debug: 1145 18610 target.c:2382 target_write_buffer(): writing buffer of 8832 byte at 0x20000074
Debug: 1146 18712 target.c:2688 target_write_u32(): address: 0x2000006c, value: 0x200022f4
Debug: 1147 18713 target.c:2600 target_read_u32(): address: 0x20000070, value: 0x20000094
Debug: 1148 18713 target.c:1021 target_run_flash_async_algorithm(): offs 0x46280 count 0x4c9f wp 0x200022f4 rp 0x20000094
Debug: 1149 18713 target.c:2382 target_write_buffer(): writing buffer of 7552 byte at 0x200022f4
Debug: 1150 18806 target.c:2688 target_write_u32(): address: 0x2000006c, value: 0x20000074
Debug: 1151 18807 target.c:2600 target_read_u32(): address: 0x20000070, value: 0x20002314
Debug: 1152 18807 target.c:1021 target_run_flash_async_algorithm(): offs 0x48000 count 0x4bb3 wp 0x20000074 rp 0x20002314
Debug: 1153 18807 target.c:2382 target_write_buffer(): writing buffer of 8832 byte at 0x20000074
Debug: 1154 18917 target.c:2688 target_write_u32(): address: 0x2000006c, value: 0x200022f4
Debug: 1155 18917 target.c:2600 target_read_u32(): address: 0x20000070, value: 0x20000094
Debug: 1156 18917 target.c:1021 target_run_flash_async_algorithm(): offs 0x4a280 count 0x4a9f wp 0x200022f4 rp 0x20000094
Debug: 1157 18917 target.c:2382 target_write_buffer(): writing buffer of 7552 byte at 0x200022f4
Debug: 1158 19029 target.c:2688 target_write_u32(): address: 0x2000006c, value: 0x20000074
Debug: 1159 19030 target.c:2600 target_read_u32(): address: 0x20000070, value: 0x20002314
Debug: 1160 19030 target.c:1021 target_run_flash_async_algorithm(): offs 0x4c000 count 0x49b3 wp 0x20000074 rp 0x20002314
Debug: 1161 19030 target.c:2382 target_write_buffer(): writing buffer of 8832 byte at 0x20000074
Debug: 1162 19144 target.c:2688 target_write_u32(): address: 0x2000006c, value: 0x200022f4
Debug: 1163 19145 target.c:2600 target_read_u32(): address: 0x20000070, value: 0x20000094
Debug: 1164 19145 target.c:1021 target_run_flash_async_algorithm(): offs 0x4e280 count 0x489f wp 0x200022f4 rp 0x20000094
Debug: 1165 19145 target.c:2382 target_write_buffer(): writing buffer of 7552 byte at 0x200022f4
Debug: 1166 19233 target.c:2688 target_write_u32(): address: 0x2000006c, value: 0x20000074
Debug: 1167 19234 target.c:2600 target_read_u32(): address: 0x20000070, value: 0x20002314
Debug: 1168 19234 target.c:1021 target_run_flash_async_algorithm(): offs 0x50000 count 0x47b3 wp 0x20000074 rp 0x20002314
Debug: 1169 19234 target.c:2382 target_write_buffer(): writing buffer of 8832 byte at 0x20000074
Debug: 1170 19337 target.c:2688 target_write_u32(): address: 0x2000006c, value: 0x200022f4
Debug: 1171 19338 target.c:2600 target_read_u32(): address: 0x20000070, value: 0x20000094
Debug: 1172 19338 target.c:1021 target_run_flash_async_algorithm(): offs 0x52280 count 0x469f wp 0x200022f4 rp 0x20000094
Debug: 1173 19338 target.c:2382 target_write_buffer(): writing buffer of 7552 byte at 0x200022f4
Debug: 1174 19431 target.c:2688 target_write_u32(): address: 0x2000006c, value: 0x20000074
Debug: 1175 19432 target.c:2600 target_read_u32(): address: 0x20000070, value: 0x20002314
Debug: 1176 19432 target.c:1021 target_run_flash_async_algorithm(): offs 0x54000 count 0x45b3 wp 0x20000074 rp 0x20002314
Debug: 1177 19432 target.c:2382 target_write_buffer(): writing buffer of 8832 byte at 0x20000074
Debug: 1178 19544 target.c:2688 target_write_u32(): address: 0x2000006c, value: 0x200022f4
Debug: 1179 19545 target.c:2600 target_read_u32(): address: 0x20000070, value: 0x20000094
Debug: 1180 19545 target.c:1021 target_run_flash_async_algorithm(): offs 0x56280 count 0x449f wp 0x200022f4 rp 0x20000094
Debug: 1181 19545 target.c:2382 target_write_buffer(): writing buffer of 7552 byte at 0x200022f4
Debug: 1182 19641 target.c:2688 target_write_u32(): address: 0x2000006c, value: 0x20000074
Debug: 1183 19642 target.c:2600 target_read_u32(): address: 0x20000070, value: 0x20002314
Debug: 1184 19642 target.c:1021 target_run_flash_async_algorithm(): offs 0x58000 count 0x43b3 wp 0x20000074 rp 0x20002314
Debug: 1185 19642 target.c:2382 target_write_buffer(): writing buffer of 8832 byte at 0x20000074
Debug: 1186 19748 target.c:2688 target_write_u32(): address: 0x2000006c, value: 0x200022f4
Debug: 1187 19749 target.c:2600 target_read_u32(): address: 0x20000070, value: 0x20000094
Debug: 1188 19749 target.c:1021 target_run_flash_async_algorithm(): offs 0x5a280 count 0x429f wp 0x200022f4 rp 0x20000094
Debug: 1189 19749 target.c:2382 target_write_buffer(): writing buffer of 7552 byte at 0x200022f4
Debug: 1190 19827 target.c:2688 target_write_u32(): address: 0x2000006c, value: 0x20000074
Debug: 1191 19828 target.c:2600 target_read_u32(): address: 0x20000070, value: 0x200022f4
Debug: 1192 19828 target.c:1021 target_run_flash_async_algorithm(): offs 0x5c000 count 0x41b3 wp 0x20000074 rp 0x200022f4
Debug: 1193 19828 target.c:2382 target_write_buffer(): writing buffer of 8800 byte at 0x20000074
Debug: 1194 19911 target.c:2688 target_write_u32(): address: 0x2000006c, value: 0x200022d4
Debug: 1195 19912 target.c:2600 target_read_u32(): address: 0x20000070, value: 0x20000094
Debug: 1196 19912 target.c:1021 target_run_flash_async_algorithm(): offs 0x5e260 count 0x40a0 wp 0x200022d4 rp 0x20000094
Debug: 1197 19912 target.c:2382 target_write_buffer(): writing buffer of 7584 byte at 0x200022d4
Debug: 1198 20010 target.c:2688 target_write_u32(): address: 0x2000006c, value: 0x20000074
Debug: 1199 20011 target.c:2600 target_read_u32(): address: 0x20000070, value: 0x200022f4
Debug: 1200 20011 target.c:1021 target_run_flash_async_algorithm(): offs 0x60000 count 0x3fb3 wp 0x20000074 rp 0x200022f4
Debug: 1201 20011 target.c:2382 target_write_buffer(): writing buffer of 8800 byte at 0x20000074
Debug: 1202 20112 target.c:2688 target_write_u32(): address: 0x2000006c, value: 0x200022d4
Debug: 1203 20112 target.c:2600 target_read_u32(): address: 0x20000070, value: 0x20000094
Debug: 1204 20113 target.c:1021 target_run_flash_async_algorithm(): offs 0x62260 count 0x3ea0 wp 0x200022d4 rp 0x20000094
Debug: 1205 20113 target.c:2382 target_write_buffer(): writing buffer of 7584 byte at 0x200022d4
Debug: 1206 20200 target.c:2688 target_write_u32(): address: 0x2000006c, value: 0x20000074
Debug: 1207 20201 target.c:2600 target_read_u32(): address: 0x20000070, value: 0x200022f4
Debug: 1208 20201 target.c:1021 target_run_flash_async_algorithm(): offs 0x64000 count 0x3db3 wp 0x20000074 rp 0x200022f4
Debug: 1209 20201 target.c:2382 target_write_buffer(): writing buffer of 8800 byte at 0x20000074
Debug: 1210 20300 target.c:2688 target_write_u32(): address: 0x2000006c, value: 0x200022d4
Debug: 1211 20301 target.c:2600 target_read_u32(): address: 0x20000070, value: 0x20000094
Debug: 1212 20301 target.c:1021 target_run_flash_async_algorithm(): offs 0x66260 count 0x3ca0 wp 0x200022d4 rp 0x20000094
Debug: 1213 20301 target.c:2382 target_write_buffer(): writing buffer of 7584 byte at 0x200022d4
Debug: 1214 20385 target.c:2688 target_write_u32(): address: 0x2000006c, value: 0x20000074
Debug: 1215 20386 target.c:2600 target_read_u32(): address: 0x20000070, value: 0x200022f4
Debug: 1216 20386 target.c:1021 target_run_flash_async_algorithm(): offs 0x68000 count 0x3bb3 wp 0x20000074 rp 0x200022f4
Debug: 1217 20386 target.c:2382 target_write_buffer(): writing buffer of 8800 byte at 0x20000074
Debug: 1218 20483 target.c:2688 target_write_u32(): address: 0x2000006c, value: 0x200022d4
Debug: 1219 20484 target.c:2600 target_read_u32(): address: 0x20000070, value: 0x20000094
Debug: 1220 20484 target.c:1021 target_run_flash_async_algorithm(): offs 0x6a260 count 0x3aa0 wp 0x200022d4 rp 0x20000094
Debug: 1221 20484 target.c:2382 target_write_buffer(): writing buffer of 7584 byte at 0x200022d4
Debug: 1222 20569 target.c:2688 target_write_u32(): address: 0x2000006c, value: 0x20000074
Debug: 1223 20570 target.c:2600 target_read_u32(): address: 0x20000070, value: 0x200022f4
Debug: 1224 20570 target.c:1021 target_run_flash_async_algorithm(): offs 0x6c000 count 0x39b3 wp 0x20000074 rp 0x200022f4
Debug: 1225 20570 target.c:2382 target_write_buffer(): writing buffer of 8800 byte at 0x20000074
Debug: 1226 20669 target.c:2688 target_write_u32(): address: 0x2000006c, value: 0x200022d4
Debug: 1227 20670 target.c:2600 target_read_u32(): address: 0x20000070, value: 0x20000094
Debug: 1228 20670 target.c:1021 target_run_flash_async_algorithm(): offs 0x6e260 count 0x38a0 wp 0x200022d4 rp 0x20000094
Debug: 1229 20670 target.c:2382 target_write_buffer(): writing buffer of 7584 byte at 0x200022d4
Debug: 1230 20756 target.c:2688 target_write_u32(): address: 0x2000006c, value: 0x20000074
Debug: 1231 20757 target.c:2600 target_read_u32(): address: 0x20000070, value: 0x200022f4
Debug: 1232 20757 target.c:1021 target_run_flash_async_algorithm(): offs 0x70000 count 0x37b3 wp 0x20000074 rp 0x200022f4
Debug: 1233 20757 target.c:2382 target_write_buffer(): writing buffer of 8800 byte at 0x20000074
Debug: 1234 20854 target.c:2688 target_write_u32(): address: 0x2000006c, value: 0x200022d4
Debug: 1235 20855 target.c:2600 target_read_u32(): address: 0x20000070, value: 0x20000094
Debug: 1236 20855 target.c:1021 target_run_flash_async_algorithm(): offs 0x72260 count 0x36a0 wp 0x200022d4 rp 0x20000094
Debug: 1237 20855 target.c:2382 target_write_buffer(): writing buffer of 7584 byte at 0x200022d4
Debug: 1238 20943 target.c:2688 target_write_u32(): address: 0x2000006c, value: 0x20000074
Debug: 1239 20944 target.c:2600 target_read_u32(): address: 0x20000070, value: 0x200022f4
Debug: 1240 20944 target.c:1021 target_run_flash_async_algorithm(): offs 0x74000 count 0x35b3 wp 0x20000074 rp 0x200022f4
Debug: 1241 20944 target.c:2382 target_write_buffer(): writing buffer of 8800 byte at 0x20000074
Debug: 1242 21049 target.c:2688 target_write_u32(): address: 0x2000006c, value: 0x200022d4
Debug: 1243 21050 target.c:2600 target_read_u32(): address: 0x20000070, value: 0x20000094
Debug: 1244 21050 target.c:1021 target_run_flash_async_algorithm(): offs 0x76260 count 0x34a0 wp 0x200022d4 rp 0x20000094
Debug: 1245 21050 target.c:2382 target_write_buffer(): writing buffer of 7584 byte at 0x200022d4
Debug: 1246 21144 target.c:2688 target_write_u32(): address: 0x2000006c, value: 0x20000074
Debug: 1247 21145 target.c:2600 target_read_u32(): address: 0x20000070, value: 0x200022f4
Debug: 1248 21145 target.c:1021 target_run_flash_async_algorithm(): offs 0x78000 count 0x33b3 wp 0x20000074 rp 0x200022f4
Debug: 1249 21145 target.c:2382 target_write_buffer(): writing buffer of 8800 byte at 0x20000074
Debug: 1250 21252 target.c:2688 target_write_u32(): address: 0x2000006c, value: 0x200022d4
Debug: 1251 21253 target.c:2600 target_read_u32(): address: 0x20000070, value: 0x20000094
Debug: 1252 21253 target.c:1021 target_run_flash_async_algorithm(): offs 0x7a260 count 0x32a0 wp 0x200022d4 rp 0x20000094
Debug: 1253 21254 target.c:2382 target_write_buffer(): writing buffer of 7584 byte at 0x200022d4
Debug: 1254 21346 target.c:2688 target_write_u32(): address: 0x2000006c, value: 0x20000074
Debug: 1255 21347 target.c:2600 target_read_u32(): address: 0x20000070, value: 0x200022f4
Debug: 1256 21347 target.c:1021 target_run_flash_async_algorithm(): offs 0x7c000 count 0x31b3 wp 0x20000074 rp 0x200022f4
Debug: 1257 21347 target.c:2382 target_write_buffer(): writing buffer of 8800 byte at 0x20000074
Debug: 1258 21454 target.c:2688 target_write_u32(): address: 0x2000006c, value: 0x200022d4
Debug: 1259 21455 target.c:2600 target_read_u32(): address: 0x20000070, value: 0x20000094
Debug: 1260 21455 target.c:1021 target_run_flash_async_algorithm(): offs 0x7e260 count 0x30a0 wp 0x200022d4 rp 0x20000094
Debug: 1261 21455 target.c:2382 target_write_buffer(): writing buffer of 7584 byte at 0x200022d4
Debug: 1262 21546 target.c:2688 target_write_u32(): address: 0x2000006c, value: 0x20000074
Debug: 1263 21547 target.c:2600 target_read_u32(): address: 0x20000070, value: 0x200022f4
Debug: 1264 21547 target.c:1021 target_run_flash_async_algorithm(): offs 0x80000 count 0x2fb3 wp 0x20000074 rp 0x200022f4
Debug: 1265 21547 target.c:2382 target_write_buffer(): writing buffer of 8800 byte at 0x20000074
Debug: 1266 21649 target.c:2688 target_write_u32(): address: 0x2000006c, value: 0x200022d4
Debug: 1267 21650 target.c:2600 target_read_u32(): address: 0x20000070, value: 0x20000094
Debug: 1268 21650 target.c:1021 target_run_flash_async_algorithm(): offs 0x82260 count 0x2ea0 wp 0x200022d4 rp 0x20000094
Debug: 1269 21650 target.c:2382 target_write_buffer(): writing buffer of 7584 byte at 0x200022d4
Debug: 1270 21742 target.c:2688 target_write_u32(): address: 0x2000006c, value: 0x20000074
Debug: 1271 21744 target.c:2600 target_read_u32(): address: 0x20000070, value: 0x200022f4
Debug: 1272 21744 target.c:1021 target_run_flash_async_algorithm(): offs 0x84000 count 0x2db3 wp 0x20000074 rp 0x200022f4
Debug: 1273 21744 target.c:2382 target_write_buffer(): writing buffer of 8800 byte at 0x20000074
Debug: 1274 21854 target.c:2688 target_write_u32(): address: 0x2000006c, value: 0x200022d4
Debug: 1275 21855 target.c:2600 target_read_u32(): address: 0x20000070, value: 0x20000094
Debug: 1276 21855 target.c:1021 target_run_flash_async_algorithm(): offs 0x86260 count 0x2ca0 wp 0x200022d4 rp 0x20000094
Debug: 1277 21855 target.c:2382 target_write_buffer(): writing buffer of 7584 byte at 0x200022d4
Debug: 1278 21944 target.c:2688 target_write_u32(): address: 0x2000006c, value: 0x20000074
Debug: 1279 21945 target.c:2600 target_read_u32(): address: 0x20000070, value: 0x200022f4
Debug: 1280 21945 target.c:1021 target_run_flash_async_algorithm(): offs 0x88000 count 0x2bb3 wp 0x20000074 rp 0x200022f4
Debug: 1281 21945 target.c:2382 target_write_buffer(): writing buffer of 8800 byte at 0x20000074
Debug: 1282 22047 target.c:2688 target_write_u32(): address: 0x2000006c, value: 0x200022d4
Debug: 1283 22048 target.c:2600 target_read_u32(): address: 0x20000070, value: 0x20000094
Debug: 1284 22048 target.c:1021 target_run_flash_async_algorithm(): offs 0x8a260 count 0x2aa0 wp 0x200022d4 rp 0x20000094
Debug: 1285 22048 target.c:2382 target_write_buffer(): writing buffer of 7584 byte at 0x200022d4
Debug: 1286 22131 target.c:2688 target_write_u32(): address: 0x2000006c, value: 0x20000074
Debug: 1287 22132 target.c:2600 target_read_u32(): address: 0x20000070, value: 0x200022f4
Debug: 1288 22132 target.c:1021 target_run_flash_async_algorithm(): offs 0x8c000 count 0x29b3 wp 0x20000074 rp 0x200022f4
Debug: 1289 22132 target.c:2382 target_write_buffer(): writing buffer of 8800 byte at 0x20000074
Debug: 1290 22239 target.c:2688 target_write_u32(): address: 0x2000006c, value: 0x200022d4
Debug: 1291 22240 target.c:2600 target_read_u32(): address: 0x20000070, value: 0x20000094
Debug: 1292 22240 target.c:1021 target_run_flash_async_algorithm(): offs 0x8e260 count 0x28a0 wp 0x200022d4 rp 0x20000094
Debug: 1293 22240 target.c:2382 target_write_buffer(): writing buffer of 7584 byte at 0x200022d4
Debug: 1294 22331 target.c:2688 target_write_u32(): address: 0x2000006c, value: 0x20000074
Debug: 1295 22332 target.c:2600 target_read_u32(): address: 0x20000070, value: 0x200022f4
Debug: 1296 22332 target.c:1021 target_run_flash_async_algorithm(): offs 0x90000 count 0x27b3 wp 0x20000074 rp 0x200022f4
Debug: 1297 22332 target.c:2382 target_write_buffer(): writing buffer of 8800 byte at 0x20000074
Debug: 1298 22432 target.c:2688 target_write_u32(): address: 0x2000006c, value: 0x200022d4
Debug: 1299 22433 target.c:2600 target_read_u32(): address: 0x20000070, value: 0x20000094
Debug: 1300 22433 target.c:1021 target_run_flash_async_algorithm(): offs 0x92260 count 0x26a0 wp 0x200022d4 rp 0x20000094
Debug: 1301 22433 target.c:2382 target_write_buffer(): writing buffer of 7584 byte at 0x200022d4
Debug: 1302 22521 target.c:2688 target_write_u32(): address: 0x2000006c, value: 0x20000074
Debug: 1303 22522 target.c:2600 target_read_u32(): address: 0x20000070, value: 0x200022f4
Debug: 1304 22522 target.c:1021 target_run_flash_async_algorithm(): offs 0x94000 count 0x25b3 wp 0x20000074 rp 0x200022f4
Debug: 1305 22522 target.c:2382 target_write_buffer(): writing buffer of 8800 byte at 0x20000074
Debug: 1306 22618 target.c:2688 target_write_u32(): address: 0x2000006c, value: 0x200022d4
Debug: 1307 22619 target.c:2600 target_read_u32(): address: 0x20000070, value: 0x20000094
Debug: 1308 22619 target.c:1021 target_run_flash_async_algorithm(): offs 0x96260 count 0x24a0 wp 0x200022d4 rp 0x20000094
Debug: 1309 22619 target.c:2382 target_write_buffer(): writing buffer of 7584 byte at 0x200022d4
Debug: 1310 22713 target.c:2688 target_write_u32(): address: 0x2000006c, value: 0x20000074
Debug: 1311 22714 target.c:2600 target_read_u32(): address: 0x20000070, value: 0x200022f4
Debug: 1312 22714 target.c:1021 target_run_flash_async_algorithm(): offs 0x98000 count 0x23b3 wp 0x20000074 rp 0x200022f4
Debug: 1313 22714 target.c:2382 target_write_buffer(): writing buffer of 8800 byte at 0x20000074
Debug: 1314 22817 target.c:2688 target_write_u32(): address: 0x2000006c, value: 0x200022d4
Debug: 1315 22818 target.c:2600 target_read_u32(): address: 0x20000070, value: 0x20000094
Debug: 1316 22818 target.c:1021 target_run_flash_async_algorithm(): offs 0x9a260 count 0x22a0 wp 0x200022d4 rp 0x20000094
Debug: 1317 22818 target.c:2382 target_write_buffer(): writing buffer of 7584 byte at 0x200022d4
Debug: 1318 22907 target.c:2688 target_write_u32(): address: 0x2000006c, value: 0x20000074
Debug: 1319 22907 target.c:2600 target_read_u32(): address: 0x20000070, value: 0x200022f4
Debug: 1320 22907 target.c:1021 target_run_flash_async_algorithm(): offs 0x9c000 count 0x21b3 wp 0x20000074 rp 0x200022f4
Debug: 1321 22907 target.c:2382 target_write_buffer(): writing buffer of 8800 byte at 0x20000074
Debug: 1322 23014 target.c:2688 target_write_u32(): address: 0x2000006c, value: 0x200022d4
Debug: 1323 23015 target.c:2600 target_read_u32(): address: 0x20000070, value: 0x20000094
Debug: 1324 23015 target.c:1021 target_run_flash_async_algorithm(): offs 0x9e260 count 0x20a0 wp 0x200022d4 rp 0x20000094
Debug: 1325 23015 target.c:2382 target_write_buffer(): writing buffer of 7584 byte at 0x200022d4
Debug: 1326 23100 target.c:2688 target_write_u32(): address: 0x2000006c, value: 0x20000074
Debug: 1327 23101 target.c:2600 target_read_u32(): address: 0x20000070, value: 0x200022d4
Debug: 1328 23101 target.c:1021 target_run_flash_async_algorithm(): offs 0xa0000 count 0x1fb3 wp 0x20000074 rp 0x200022d4
Debug: 1329 23101 target.c:2382 target_write_buffer(): writing buffer of 8768 byte at 0x20000074
Debug: 1330 23206 target.c:2688 target_write_u32(): address: 0x2000006c, value: 0x200022b4
Debug: 1331 23207 target.c:2600 target_read_u32(): address: 0x20000070, value: 0x20000094
Debug: 1332 23207 target.c:1021 target_run_flash_async_algorithm(): offs 0xa2240 count 0x1ea1 wp 0x200022b4 rp 0x20000094
Debug: 1333 23207 target.c:2382 target_write_buffer(): writing buffer of 7616 byte at 0x200022b4
Debug: 1334 23298 target.c:2688 target_write_u32(): address: 0x2000006c, value: 0x20000074
Debug: 1335 23299 target.c:2600 target_read_u32(): address: 0x20000070, value: 0x200022d4
Debug: 1336 23299 target.c:1021 target_run_flash_async_algorithm(): offs 0xa4000 count 0x1db3 wp 0x20000074 rp 0x200022d4
Debug: 1337 23299 target.c:2382 target_write_buffer(): writing buffer of 8768 byte at 0x20000074
Debug: 1338 23404 target.c:2688 target_write_u32(): address: 0x2000006c, value: 0x200022b4
Debug: 1339 23405 target.c:2600 target_read_u32(): address: 0x20000070, value: 0x20000094
Debug: 1340 23405 target.c:1021 target_run_flash_async_algorithm(): offs 0xa6240 count 0x1ca1 wp 0x200022b4 rp 0x20000094
Debug: 1341 23405 target.c:2382 target_write_buffer(): writing buffer of 7616 byte at 0x200022b4
Debug: 1342 23491 target.c:2688 target_write_u32(): address: 0x2000006c, value: 0x20000074
Debug: 1343 23492 target.c:2600 target_read_u32(): address: 0x20000070, value: 0x200022d4
Debug: 1344 23492 target.c:1021 target_run_flash_async_algorithm(): offs 0xa8000 count 0x1bb3 wp 0x20000074 rp 0x200022d4
Debug: 1345 23492 target.c:2382 target_write_buffer(): writing buffer of 8768 byte at 0x20000074
Debug: 1346 23593 target.c:2688 target_write_u32(): address: 0x2000006c, value: 0x200022b4
Debug: 1347 23594 target.c:2600 target_read_u32(): address: 0x20000070, value: 0x20000094
Debug: 1348 23594 target.c:1021 target_run_flash_async_algorithm(): offs 0xaa240 count 0x1aa1 wp 0x200022b4 rp 0x20000094
Debug: 1349 23594 target.c:2382 target_write_buffer(): writing buffer of 7616 byte at 0x200022b4
Debug: 1350 23686 target.c:2688 target_write_u32(): address: 0x2000006c, value: 0x20000074
Debug: 1351 23687 target.c:2600 target_read_u32(): address: 0x20000070, value: 0x200022d4
Debug: 1352 23687 target.c:1021 target_run_flash_async_algorithm(): offs 0xac000 count 0x19b3 wp 0x20000074 rp 0x200022d4
Debug: 1353 23687 target.c:2382 target_write_buffer(): writing buffer of 8768 byte at 0x20000074
Debug: 1354 23788 target.c:2688 target_write_u32(): address: 0x2000006c, value: 0x200022b4
Debug: 1355 23789 target.c:2600 target_read_u32(): address: 0x20000070, value: 0x20000094
Debug: 1356 23789 target.c:1021 target_run_flash_async_algorithm(): offs 0xae240 count 0x18a1 wp 0x200022b4 rp 0x20000094
Debug: 1357 23789 target.c:2382 target_write_buffer(): writing buffer of 7616 byte at 0x200022b4
Debug: 1358 23884 target.c:2688 target_write_u32(): address: 0x2000006c, value: 0x20000074
Debug: 1359 23885 target.c:2600 target_read_u32(): address: 0x20000070, value: 0x200022d4
Debug: 1360 23885 target.c:1021 target_run_flash_async_algorithm(): offs 0xb0000 count 0x17b3 wp 0x20000074 rp 0x200022d4
Debug: 1361 23885 target.c:2382 target_write_buffer(): writing buffer of 8768 byte at 0x20000074
Debug: 1362 23991 target.c:2688 target_write_u32(): address: 0x2000006c, value: 0x200022b4
Debug: 1363 23992 target.c:2600 target_read_u32(): address: 0x20000070, value: 0x20000094
Debug: 1364 23992 target.c:1021 target_run_flash_async_algorithm(): offs 0xb2240 count 0x16a1 wp 0x200022b4 rp 0x20000094
Debug: 1365 23992 target.c:2382 target_write_buffer(): writing buffer of 7616 byte at 0x200022b4
Debug: 1366 24082 target.c:2688 target_write_u32(): address: 0x2000006c, value: 0x20000074
Debug: 1367 24082 target.c:2600 target_read_u32(): address: 0x20000070, value: 0x200022d4
Debug: 1368 24082 target.c:1021 target_run_flash_async_algorithm(): offs 0xb4000 count 0x15b3 wp 0x20000074 rp 0x200022d4
Debug: 1369 24082 target.c:2382 target_write_buffer(): writing buffer of 8768 byte at 0x20000074
Debug: 1370 24187 target.c:2688 target_write_u32(): address: 0x2000006c, value: 0x200022b4
Debug: 1371 24188 target.c:2600 target_read_u32(): address: 0x20000070, value: 0x20000094
Debug: 1372 24188 target.c:1021 target_run_flash_async_algorithm(): offs 0xb6240 count 0x14a1 wp 0x200022b4 rp 0x20000094
Debug: 1373 24188 target.c:2382 target_write_buffer(): writing buffer of 7616 byte at 0x200022b4
Debug: 1374 24274 target.c:2688 target_write_u32(): address: 0x2000006c, value: 0x20000074
Debug: 1375 24275 target.c:2600 target_read_u32(): address: 0x20000070, value: 0x200022d4
Debug: 1376 24275 target.c:1021 target_run_flash_async_algorithm(): offs 0xb8000 count 0x13b3 wp 0x20000074 rp 0x200022d4
Debug: 1377 24275 target.c:2382 target_write_buffer(): writing buffer of 8768 byte at 0x20000074
Debug: 1378 24374 target.c:2688 target_write_u32(): address: 0x2000006c, value: 0x200022b4
Debug: 1379 24375 target.c:2600 target_read_u32(): address: 0x20000070, value: 0x20000094
Debug: 1380 24375 target.c:1021 target_run_flash_async_algorithm(): offs 0xba240 count 0x12a1 wp 0x200022b4 rp 0x20000094
Debug: 1381 24375 target.c:2382 target_write_buffer(): writing buffer of 7616 byte at 0x200022b4
Debug: 1382 24464 target.c:2688 target_write_u32(): address: 0x2000006c, value: 0x20000074
Debug: 1383 24465 target.c:2600 target_read_u32(): address: 0x20000070, value: 0x200022d4
Debug: 1384 24465 target.c:1021 target_run_flash_async_algorithm(): offs 0xbc000 count 0x11b3 wp 0x20000074 rp 0x200022d4
Debug: 1385 24465 target.c:2382 target_write_buffer(): writing buffer of 8768 byte at 0x20000074
Debug: 1386 24569 target.c:2688 target_write_u32(): address: 0x2000006c, value: 0x200022b4
Debug: 1387 24570 target.c:2600 target_read_u32(): address: 0x20000070, value: 0x20000094
Debug: 1388 24570 target.c:1021 target_run_flash_async_algorithm(): offs 0xbe240 count 0x10a1 wp 0x200022b4 rp 0x20000094
Debug: 1389 24570 target.c:2382 target_write_buffer(): writing buffer of 7616 byte at 0x200022b4
Debug: 1390 24668 target.c:2688 target_write_u32(): address: 0x2000006c, value: 0x20000074
Debug: 1391 24669 target.c:2600 target_read_u32(): address: 0x20000070, value: 0x200022d4
Debug: 1392 24669 target.c:1021 target_run_flash_async_algorithm(): offs 0xc0000 count 0xfb3 wp 0x20000074 rp 0x200022d4
Debug: 1393 24669 target.c:2382 target_write_buffer(): writing buffer of 8768 byte at 0x20000074
Debug: 1394 24780 target.c:2688 target_write_u32(): address: 0x2000006c, value: 0x200022b4
Debug: 1395 24781 target.c:2600 target_read_u32(): address: 0x20000070, value: 0x20000094
Debug: 1396 24782 target.c:1021 target_run_flash_async_algorithm(): offs 0xc2240 count 0xea1 wp 0x200022b4 rp 0x20000094
Debug: 1397 24782 target.c:2382 target_write_buffer(): writing buffer of 7616 byte at 0x200022b4
Debug: 1398 24870 target.c:2688 target_write_u32(): address: 0x2000006c, value: 0x20000074
Debug: 1399 24871 target.c:2600 target_read_u32(): address: 0x20000070, value: 0x200022d4
Debug: 1400 24871 target.c:1021 target_run_flash_async_algorithm(): offs 0xc4000 count 0xdb3 wp 0x20000074 rp 0x200022d4
Debug: 1401 24871 target.c:2382 target_write_buffer(): writing buffer of 8768 byte at 0x20000074
Debug: 1402 24976 target.c:2688 target_write_u32(): address: 0x2000006c, value: 0x200022b4
Debug: 1403 24977 target.c:2600 target_read_u32(): address: 0x20000070, value: 0x20000094
Debug: 1404 24977 target.c:1021 target_run_flash_async_algorithm(): offs 0xc6240 count 0xca1 wp 0x200022b4 rp 0x20000094
Debug: 1405 24977 target.c:2382 target_write_buffer(): writing buffer of 7616 byte at 0x200022b4
Debug: 1406 25067 target.c:2688 target_write_u32(): address: 0x2000006c, value: 0x20000074
Debug: 1407 25068 target.c:2600 target_read_u32(): address: 0x20000070, value: 0x200022d4
Debug: 1408 25068 target.c:1021 target_run_flash_async_algorithm(): offs 0xc8000 count 0xbb3 wp 0x20000074 rp 0x200022d4
Debug: 1409 25068 target.c:2382 target_write_buffer(): writing buffer of 8768 byte at 0x20000074
Debug: 1410 25173 target.c:2688 target_write_u32(): address: 0x2000006c, value: 0x200022b4
Debug: 1411 25173 target.c:2600 target_read_u32(): address: 0x20000070, value: 0x20000094
Debug: 1412 25173 target.c:1021 target_run_flash_async_algorithm(): offs 0xca240 count 0xaa1 wp 0x200022b4 rp 0x20000094
Debug: 1413 25173 target.c:2382 target_write_buffer(): writing buffer of 7616 byte at 0x200022b4
Debug: 1414 25266 target.c:2688 target_write_u32(): address: 0x2000006c, value: 0x20000074
Debug: 1415 25268 target.c:2600 target_read_u32(): address: 0x20000070, value: 0x200022d4
Debug: 1416 25268 target.c:1021 target_run_flash_async_algorithm(): offs 0xcc000 count 0x9b3 wp 0x20000074 rp 0x200022d4
Debug: 1417 25268 target.c:2382 target_write_buffer(): writing buffer of 8768 byte at 0x20000074
Debug: 1418 25363 target.c:2688 target_write_u32(): address: 0x2000006c, value: 0x200022b4
Debug: 1419 25471 target.c:2600 target_read_u32(): address: 0x20000070, value: 0x20000094
Debug: 1420 25471 target.c:1021 target_run_flash_async_algorithm(): offs 0xce240 count 0x8a1 wp 0x200022b4 rp 0x20000094
Debug: 1421 25471 target.c:2382 target_write_buffer(): writing buffer of 7616 byte at 0x200022b4
Debug: 1422 25548 target.c:2688 target_write_u32(): address: 0x2000006c, value: 0x20000074
Debug: 1423 25548 target.c:2600 target_read_u32(): address: 0x20000070, value: 0x200022d4
Debug: 1424 25548 target.c:1021 target_run_flash_async_algorithm(): offs 0xd0000 count 0x7b3 wp 0x20000074 rp 0x200022d4
Debug: 1425 25548 target.c:2382 target_write_buffer(): writing buffer of 8768 byte at 0x20000074
Debug: 1426 25626 target.c:2688 target_write_u32(): address: 0x2000006c, value: 0x200022b4
Debug: 1427 25626 target.c:2600 target_read_u32(): address: 0x20000070, value: 0x20000074
Debug: 1428 25626 target.c:1021 target_run_flash_async_algorithm(): offs 0xd2240 count 0x6a1 wp 0x200022b4 rp 0x20000074
Debug: 1429 25626 target.c:2382 target_write_buffer(): writing buffer of 7584 byte at 0x200022b4
Debug: 1430 25710 target.c:2688 target_write_u32(): address: 0x2000006c, value: 0x20004054
Debug: 1431 25711 target.c:2600 target_read_u32(): address: 0x20000070, value: 0x200022d4
Debug: 1432 25711 target.c:1021 target_run_flash_async_algorithm(): offs 0xd3fe0 count 0x5b4 wp 0x20004054 rp 0x200022d4
Debug: 1433 25711 target.c:2382 target_write_buffer(): writing buffer of 32 byte at 0x20004054
Debug: 1434 25712 target.c:2688 target_write_u32(): address: 0x2000006c, value: 0x20000074
Debug: 1435 25713 target.c:2600 target_read_u32(): address: 0x20000070, value: 0x20002394
Debug: 1436 25713 target.c:1021 target_run_flash_async_algorithm(): offs 0xd4000 count 0x5b3 wp 0x20000074 rp 0x20002394
Debug: 1437 25713 target.c:2382 target_write_buffer(): writing buffer of 8960 byte at 0x20000074
Debug: 1438 25811 target.c:2688 target_write_u32(): address: 0x2000006c, value: 0x20002374
Debug: 1439 25811 target.c:2600 target_read_u32(): address: 0x20000070, value: 0x20000094
Debug: 1440 25811 target.c:1021 target_run_flash_async_algorithm(): offs 0xd6300 count 0x49b wp 0x20002374 rp 0x20000094
Debug: 1441 25811 target.c:2382 target_write_buffer(): writing buffer of 7424 byte at 0x20002374
Debug: 1442 25877 target.c:2688 target_write_u32(): address: 0x2000006c, value: 0x20000074
Debug: 1443 25878 target.c:2600 target_read_u32(): address: 0x20000070, value: 0x20002114
Debug: 1444 25878 target.c:1021 target_run_flash_async_algorithm(): offs 0xd8000 count 0x3b3 wp 0x20000074 rp 0x20002114
Debug: 1445 25878 target.c:2382 target_write_buffer(): writing buffer of 8320 byte at 0x20000074
Debug: 1446 25976 target.c:2688 target_write_u32(): address: 0x2000006c, value: 0x200020f4
Debug: 1447 25977 target.c:2600 target_read_u32(): address: 0x20000070, value: 0x20000094
Debug: 1448 25977 target.c:1021 target_run_flash_async_algorithm(): offs 0xda080 count 0x2af wp 0x200020f4 rp 0x20000094
Debug: 1449 25977 target.c:2382 target_write_buffer(): writing buffer of 8064 byte at 0x200020f4
Debug: 1450 26077 target.c:2688 target_write_u32(): address: 0x2000006c, value: 0x20000074
Debug: 1451 26078 target.c:2600 target_read_u32(): address: 0x20000070, value: 0x20002114
Debug: 1452 26078 target.c:1021 target_run_flash_async_algorithm(): offs 0xdc000 count 0x1b3 wp 0x20000074 rp 0x20002114
Debug: 1453 26078 target.c:2382 target_write_buffer(): writing buffer of 8320 byte at 0x20000074
Debug: 1454 26178 target.c:2688 target_write_u32(): address: 0x2000006c, value: 0x200020f4
Debug: 1455 26178 target.c:2600 target_read_u32(): address: 0x20000070, value: 0x20000094
Debug: 1456 26178 target.c:1021 target_run_flash_async_algorithm(): offs 0xde080 count 0xaf wp 0x200020f4 rp 0x20000094
Debug: 1457 26178 target.c:2382 target_write_buffer(): writing buffer of 5600 byte at 0x200020f4
Debug: 1458 26243 target.c:2688 target_write_u32(): address: 0x2000006c, value: 0x200036d4
Debug: 1459 26244 target.c:3258 target_wait_state(): waiting for target halted...
Debug: 1460 26289 cortex_m.c:803 cortex_m_debug_entry(): [stm32h7x.cpu0]  
Debug: 1461 26290 cortex_m.c:544 cortex_m_clear_halt(): [stm32h7x.cpu0] NVIC_DFSR 0x3
Debug: 1462 26301 cortex_m.c:346 cortex_m_fast_read_all_regs(): [stm32h7x.cpu0] read 53 32-bit registers
Debug: 1463 26301 cortex_m.c:873 cortex_m_debug_entry(): [stm32h7x.cpu0] entered debug state in core mode: Thread at PC 0x20000064, cpu in Non-Secure state, target->state: halted
Debug: 1464 26301 target.c:1815 target_call_event_callbacks(): target event 17 (debug-halted) for core stm32h7x.cpu0
Debug: 1465 26301 armv7m.c:704 armv7m_wait_algorithm(): restoring register primask with value 0x00000000
Debug: 1466 26301 armv7m.c:704 armv7m_wait_algorithm(): restoring register pmsk_bpri_fltmsk_ctrl with value 0x00000000
Debug: 1467 26301 armv7m.c:704 armv7m_wait_algorithm(): restoring register xpsr with value 0x01000000
Debug: 1468 26301 armv7m.c:704 armv7m_wait_algorithm(): restoring register pc with value 0x080a7c80
Debug: 1469 26301 armv7m.c:704 armv7m_wait_algorithm(): restoring register r8 with value 0x00000000
Debug: 1470 26301 armv7m.c:704 armv7m_wait_algorithm(): restoring register r7 with value 0x00000000
Debug: 1471 26301 armv7m.c:704 armv7m_wait_algorithm(): restoring register r6 with value 0x00000000
Debug: 1472 26301 armv7m.c:704 armv7m_wait_algorithm(): restoring register r5 with value 0x00000000
Debug: 1473 26301 armv7m.c:704 armv7m_wait_algorithm(): restoring register r4 with value 0x00000000
Debug: 1474 26301 armv7m.c:704 armv7m_wait_algorithm(): restoring register r2 with value 0x00000000
Debug: 1475 26301 armv7m.c:704 armv7m_wait_algorithm(): restoring register r1 with value 0x00000000
Debug: 1476 26302 armv7m.c:704 armv7m_wait_algorithm(): restoring register r0 with value 0x00000000
Debug: 1477 26302 target.c:2600 target_read_u32(): address: 0x20000070, value: 0x200036d4
Debug: 1478 26302 target.c:2142 target_free_working_area_restore(): freed 16392 bytes of working area at address 0x2000006c
Debug: 1479 26302 target.c:1941 print_wa_layout():  * 0x20000000-0x2000006b (108 bytes)
Debug: 1480 26302 target.c:1941 print_wa_layout():    0x2000006c-0x2000ffff (65428 bytes)
Debug: 1481 26302 target.c:2142 target_free_working_area_restore(): freed 108 bytes of working area at address 0x20000000
Debug: 1482 26302 target.c:1941 print_wa_layout():    0x20000000-0x2000ffff (65536 bytes)
Debug: 1483 26302 target.c:2688 target_write_u32(): address: 0x5200200c, value: 0x00000001
Debug: 1484 26303 target.c:1815 target_call_event_callbacks(): target event 27 (gdb-flash-write-end) for core stm32h7x.cpu0
Debug: 1485 26303 target.c:5154 target_handle_event(): target(1): stm32h7x.cpu0 (cortex_m) event: 27 (gdb-flash-write-end) action: reset halt
Debug: 1486 26303 command.c:152 script_debug(): command - reset halt
Debug: 1487 26304 target.c:1834 target_call_reset_callbacks(): target reset 2 (halt)
Debug: 1488 26304 target.c:1834 target_call_reset_callbacks(): target reset 2 (halt)
Debug: 1489 26304 command.c:152 script_debug(): command - target names
Debug: 1490 26304 command.c:152 script_debug(): command - stm32h7x.ap2 invoke-event reset-start
Debug: 1491 26304 command.c:152 script_debug(): command - stm32h7x.cpu0 invoke-event reset-start
Debug: 1492 26304 command.c:152 script_debug(): command - transport select
Debug: 1493 26304 command.c:152 script_debug(): command - transport select
Debug: 1494 26304 command.c:152 script_debug(): command - stm32h7x.ap2 invoke-event examine-start
Debug: 1495 26304 command.c:152 script_debug(): command - stm32h7x.ap2 arp_examine allow-defer
Debug: 1496 26304 command.c:152 script_debug(): command - stm32h7x.ap2 invoke-event examine-end
Debug: 1497 26304 command.c:152 script_debug(): command - transport select
Debug: 1498 26304 command.c:152 script_debug(): command - stm32h7x.cpu0 invoke-event examine-start
Debug: 1499 26304 command.c:152 script_debug(): command - stm32h7x.cpu0 arp_examine allow-defer
Debug: 1500 26305 arm_adi_v5.c:825 mem_ap_init(): MEM_AP Packed Transfers: enabled
Debug: 1501 26305 arm_adi_v5.c:836 mem_ap_init(): MEM_AP CFG: large data 0, long address 0, big-endian 0
Debug: 1502 26305 command.c:152 script_debug(): command - stm32h7x.cpu0 invoke-event examine-end
Debug: 1503 26305 target.c:5154 target_handle_event(): target(1): stm32h7x.cpu0 (cortex_m) event: 21 (examine-end) action: 
	# Enable D3 and D1 DBG clocks
	# DBGMCU_CR |= D3DBGCKEN | D1DBGCKEN
	stm32h7x_dbgmcu_mmw 0x004 0x00600000 0

	# Enable debug during low power modes (uses more power)
	# DBGMCU_CR |= DBG_STANDBY | DBG_STOP | DBG_SLEEP D1 Domain
	stm32h7x_dbgmcu_mmw 0x004 0x00000007 0
	# DBGMCU_CR |= DBG_STANDBY | DBG_STOP | DBG_SLEEP D2 Domain
	stm32h7x_dbgmcu_mmw 0x004 0x00000038 0

	# Stop watchdog counters during halt
	# DBGMCU_APB3FZ1 |= WWDG1
	stm32h7x_dbgmcu_mmw 0x034 0x00000040 0
	# DBGMCU_APB1LFZ1 |= WWDG2
	stm32h7x_dbgmcu_mmw 0x03C 0x00000800 0
	# DBGMCU_APB4FZ1 |= WDGLSD1 | WDGLSD2
	stm32h7x_dbgmcu_mmw 0x054 0x000C0000 0

	# Enable clock for tracing
	# DBGMCU_CR |= TRACECLKEN
	stm32h7x_dbgmcu_mmw 0x004 0x00100000 0

	# RM0399 (id 0x450) M7+M4 with SWO Funnel
	# RM0433 (id 0x450) M7 with SWO Funnel
	# RM0455 (id 0x480) M7 without SWO Funnel
	# RM0468 (id 0x483) M7 without SWO Funnel
	# Enable CM7 and CM4 slave ports in SWO trace Funnel
	# Works ok also on devices single core and without SWO funnel
	# Hack, use stm32h7x_dbgmcu_mmw with big offset to control SWTF
	# SWTF_CTRL |= ENS0 | ENS1
	stm32h7x_dbgmcu_mmw 0x3000 0x00000003 0

Debug: 1504 26305 command.c:152 script_debug(): command - transport select
Debug: 1505 26306 command.c:152 script_debug(): command - target current
Debug: 1506 26306 command.c:152 script_debug(): command - stm32h7x.ap2 read_memory 3759017988 32 1
Debug: 1507 26306 mem_ap.c:241 mem_ap_read_memory(): Reading memory at physical address 0xe00e1004; size 4; count 1
Debug: 1508 26306 command.c:152 script_debug(): command - stm32h7x.ap2 mww 3759017988 7340095
Debug: 1509 26306 mem_ap.c:256 mem_ap_write_memory(): Writing memory at physical address 0xe00e1004; size 4; count 1
Debug: 1510 26307 command.c:152 script_debug(): command - transport select
Debug: 1511 26307 command.c:152 script_debug(): command - target current
Debug: 1512 26307 command.c:152 script_debug(): command - stm32h7x.ap2 read_memory 3759017988 32 1
Debug: 1513 26307 mem_ap.c:241 mem_ap_read_memory(): Reading memory at physical address 0xe00e1004; size 4; count 1
Debug: 1514 26308 command.c:152 script_debug(): command - stm32h7x.ap2 mww 3759017988 7340095
Debug: 1515 26308 mem_ap.c:256 mem_ap_write_memory(): Writing memory at physical address 0xe00e1004; size 4; count 1
Debug: 1516 26309 command.c:152 script_debug(): command - transport select
Debug: 1517 26309 command.c:152 script_debug(): command - target current
Debug: 1518 26309 command.c:152 script_debug(): command - stm32h7x.ap2 read_memory 3759017988 32 1
Debug: 1519 26309 mem_ap.c:241 mem_ap_read_memory(): Reading memory at physical address 0xe00e1004; size 4; count 1
Debug: 1520 26310 command.c:152 script_debug(): command - stm32h7x.ap2 mww 3759017988 7340095
Debug: 1521 26310 mem_ap.c:256 mem_ap_write_memory(): Writing memory at physical address 0xe00e1004; size 4; count 1
Debug: 1522 26310 command.c:152 script_debug(): command - transport select
Debug: 1523 26311 command.c:152 script_debug(): command - target current
Debug: 1524 26311 command.c:152 script_debug(): command - stm32h7x.ap2 read_memory 3759018036 32 1
Debug: 1525 26311 mem_ap.c:241 mem_ap_read_memory(): Reading memory at physical address 0xe00e1034; size 4; count 1
Debug: 1526 26311 command.c:152 script_debug(): command - stm32h7x.ap2 mww 3759018036 64
Debug: 1527 26311 mem_ap.c:256 mem_ap_write_memory(): Writing memory at physical address 0xe00e1034; size 4; count 1
Debug: 1528 26312 command.c:152 script_debug(): command - transport select
Debug: 1529 26312 command.c:152 script_debug(): command - target current
Debug: 1530 26312 command.c:152 script_debug(): command - stm32h7x.ap2 read_memory 3759018044 32 1
Debug: 1531 26312 mem_ap.c:241 mem_ap_read_memory(): Reading memory at physical address 0xe00e103c; size 4; count 1
Debug: 1532 26313 command.c:152 script_debug(): command - stm32h7x.ap2 mww 3759018044 2048
Debug: 1533 26313 mem_ap.c:256 mem_ap_write_memory(): Writing memory at physical address 0xe00e103c; size 4; count 1
Debug: 1534 26314 command.c:152 script_debug(): command - transport select
Debug: 1535 26314 command.c:152 script_debug(): command - target current
Debug: 1536 26314 command.c:152 script_debug(): command - stm32h7x.ap2 read_memory 3759018068 32 1
Debug: 1537 26314 mem_ap.c:241 mem_ap_read_memory(): Reading memory at physical address 0xe00e1054; size 4; count 1
Debug: 1538 26314 command.c:152 script_debug(): command - stm32h7x.ap2 mww 3759018068 786432
Debug: 1539 26314 mem_ap.c:256 mem_ap_write_memory(): Writing memory at physical address 0xe00e1054; size 4; count 1
Debug: 1540 26315 command.c:152 script_debug(): command - transport select
Debug: 1541 26315 command.c:152 script_debug(): command - target current
Debug: 1542 26315 command.c:152 script_debug(): command - stm32h7x.ap2 read_memory 3759017988 32 1
Debug: 1543 26315 mem_ap.c:241 mem_ap_read_memory(): Reading memory at physical address 0xe00e1004; size 4; count 1
Debug: 1544 26316 command.c:152 script_debug(): command - stm32h7x.ap2 mww 3759017988 7340095
Debug: 1545 26316 mem_ap.c:256 mem_ap_write_memory(): Writing memory at physical address 0xe00e1004; size 4; count 1
Debug: 1546 26317 command.c:152 script_debug(): command - transport select
Debug: 1547 26317 command.c:152 script_debug(): command - target current
Debug: 1548 26317 command.c:152 script_debug(): command - stm32h7x.ap2 read_memory 3759030272 32 1
Debug: 1549 26317 mem_ap.c:241 mem_ap_read_memory(): Reading memory at physical address 0xe00e4000; size 4; count 1
Debug: 1550 26318 command.c:152 script_debug(): command - stm32h7x.ap2 mww 3759030272 771
Debug: 1551 26318 mem_ap.c:256 mem_ap_write_memory(): Writing memory at physical address 0xe00e4000; size 4; count 1
Debug: 1552 26319 command.c:152 script_debug(): command - stm32h7x.ap2 invoke-event reset-assert-pre
Debug: 1553 26319 command.c:152 script_debug(): command - stm32h7x.cpu0 invoke-event reset-assert-pre
Debug: 1554 26319 command.c:152 script_debug(): command - transport select
Debug: 1555 26319 command.c:152 script_debug(): command - stm32h7x.ap2 arp_reset assert 1
Debug: 1556 26319 target.c:2171 target_free_all_working_areas_restore(): freeing all working areas
Debug: 1557 26319 mem_ap.c:130 mem_ap_assert_reset(): mem_ap_assert_reset
Debug: 1558 26319 command.c:152 script_debug(): command - transport select
Debug: 1559 26319 command.c:152 script_debug(): command - stm32h7x.cpu0 arp_reset assert 1
Debug: 1560 26319 target.c:2171 target_free_all_working_areas_restore(): freeing all working areas
Debug: 1561 26319 target.c:1941 print_wa_layout():    0x20000000-0x2000ffff (65536 bytes)
Debug: 1562 26319 cortex_m.c:1760 cortex_m_assert_reset(): [stm32h7x.cpu0] target->state: halted, examined
Debug: 1563 26320 cortex_m.c:1879 cortex_m_assert_reset(): [stm32h7x.cpu0] Using Cortex-M SYSRESETREQ
Debug: 1564 26321 arm_adi_v5.c:754 dap_dp_init_or_reconnect(): stm32h7x.dap
Debug: 1565 26321 arm_adi_v5.c:679 dap_dp_init(): stm32h7x.dap
Debug: 1566 26321 arm_adi_v5.c:711 dap_dp_init(): DAP: wait CDBGPWRUPACK
Debug: 1567 26321 arm_adi_v5.h:641 dap_dp_poll_register(): DAP: poll 4, mask 0x20000000, value 0x20000000
Debug: 1568 26322 arm_adi_v5.c:719 dap_dp_init(): DAP: wait CSYSPWRUPACK
Debug: 1569 26322 arm_adi_v5.h:641 dap_dp_poll_register(): DAP: poll 4, mask 0x80000000, value 0x80000000
Debug: 1570 26322 cmsis_dap.c:817 cmsis_dap_swd_write_from_queue(): refusing to enable sticky overrun detection
Debug: 1571 26403 cortex_m.c:1104 cortex_m_halt_one(): [stm32h7x.cpu0] target->state: reset
Debug: 1572 26403 command.c:152 script_debug(): command - stm32h7x.ap2 invoke-event reset-assert-post
Debug: 1573 26403 command.c:152 script_debug(): command - stm32h7x.cpu0 invoke-event reset-assert-post
Debug: 1574 26404 command.c:152 script_debug(): command - stm32h7x.ap2 invoke-event reset-deassert-pre
Debug: 1575 26404 command.c:152 script_debug(): command - stm32h7x.cpu0 invoke-event reset-deassert-pre
Debug: 1576 26404 command.c:152 script_debug(): command - transport select
Debug: 1577 26404 command.c:152 script_debug(): command - stm32h7x.ap2 arp_reset deassert 1
Debug: 1578 26404 target.c:2171 target_free_all_working_areas_restore(): freeing all working areas
Debug: 1579 26404 target.c:1815 target_call_event_callbacks(): target event 0 (gdb-halt) for core stm32h7x.ap2
Debug: 1580 26404 target.c:1815 target_call_event_callbacks(): target event 1 (halted) for core stm32h7x.ap2
Debug: 1581 26404 mem_ap.c:83 mem_ap_arch_state(): mem_ap_arch_state
Debug: 1582 26404 mem_ap.c:166 mem_ap_deassert_reset(): mem_ap_deassert_reset
Debug: 1583 26404 command.c:152 script_debug(): command - transport select
Debug: 1584 26404 command.c:152 script_debug(): command - stm32h7x.cpu0 arp_reset deassert 1
Debug: 1585 26405 target.c:2171 target_free_all_working_areas_restore(): freeing all working areas
Debug: 1586 26405 target.c:1941 print_wa_layout():    0x20000000-0x2000ffff (65536 bytes)
Debug: 1587 26405 cortex_m.c:1932 cortex_m_deassert_reset(): [stm32h7x.cpu0] target->state: reset, examined
Debug: 1588 26405 command.c:152 script_debug(): command - stm32h7x.ap2 invoke-event reset-deassert-post
Debug: 1589 26405 command.c:152 script_debug(): command - stm32h7x.cpu0 invoke-event reset-deassert-post
Debug: 1590 26405 command.c:152 script_debug(): command - transport select
Debug: 1591 26405 command.c:152 script_debug(): command - stm32h7x.ap2 was_examined
Debug: 1592 26405 command.c:152 script_debug(): command - stm32h7x.ap2 arp_waitstate halted 1000
Debug: 1593 26405 command.c:152 script_debug(): command - stm32h7x.ap2 curstate
Debug: 1594 26405 command.c:152 script_debug(): command - transport select
Debug: 1595 26405 command.c:152 script_debug(): command - stm32h7x.cpu0 was_examined
Debug: 1596 26406 command.c:152 script_debug(): command - stm32h7x.cpu0 arp_waitstate halted 1000
Debug: 1597 26406 target.c:3258 target_wait_state(): waiting for target halted...
Debug: 1598 26407 cortex_m.c:936 cortex_m_poll_one(): [stm32h7x.cpu0] Exit from reset with dcb_dhcsr 0x30003
Debug: 1599 26407 cortex_m.c:606 cortex_m_endreset_event(): [stm32h7x.cpu0] DCB_DEMCR = 0x01000501
Debug: 1600 26408 target.c:2688 target_write_u32(): address: 0xe0002000, value: 0x00000003
Debug: 1601 26410 target.c:2600 target_read_u32(): address: 0xe0002000, value: 0x10000081
Debug: 1602 26410 target.c:2688 target_write_u32(): address: 0xe0002008, value: 0x00000000
Debug: 1603 26410 target.c:2688 target_write_u32(): address: 0xe000200c, value: 0x00000000
Debug: 1604 26411 target.c:2688 target_write_u32(): address: 0xe0002010, value: 0x00000000
Debug: 1605 26411 target.c:2688 target_write_u32(): address: 0xe0002014, value: 0x00000000
Debug: 1606 26411 target.c:2688 target_write_u32(): address: 0xe0002018, value: 0x00000000
Debug: 1607 26412 target.c:2688 target_write_u32(): address: 0xe000201c, value: 0x00000000
Debug: 1608 26413 target.c:2688 target_write_u32(): address: 0xe0002020, value: 0x00000000
Debug: 1609 26413 target.c:2688 target_write_u32(): address: 0xe0002024, value: 0x00000000
Debug: 1610 26414 target.c:2688 target_write_u32(): address: 0xe0001020, value: 0x00000000
Debug: 1611 26415 target.c:2688 target_write_u32(): address: 0xe0001024, value: 0x00000000
Debug: 1612 26416 target.c:2688 target_write_u32(): address: 0xe0001028, value: 0x00000000
Debug: 1613 26416 target.c:2688 target_write_u32(): address: 0xe0001030, value: 0x00000000
Debug: 1614 26416 target.c:2688 target_write_u32(): address: 0xe0001034, value: 0x00000000
Debug: 1615 26417 target.c:2688 target_write_u32(): address: 0xe0001038, value: 0x00000000
Debug: 1616 26418 target.c:2688 target_write_u32(): address: 0xe0001040, value: 0x00000000
Debug: 1617 26418 target.c:2688 target_write_u32(): address: 0xe0001044, value: 0x00000000
Debug: 1618 26419 target.c:2688 target_write_u32(): address: 0xe0001048, value: 0x00000000
Debug: 1619 26420 target.c:2688 target_write_u32(): address: 0xe0001050, value: 0x00000000
Debug: 1620 26420 target.c:2688 target_write_u32(): address: 0xe0001054, value: 0x00000000
Debug: 1621 26421 target.c:2688 target_write_u32(): address: 0xe0001058, value: 0x00000000
Debug: 1622 26422 cortex_m.c:803 cortex_m_debug_entry(): [stm32h7x.cpu0]  
Debug: 1623 26423 cortex_m.c:544 cortex_m_clear_halt(): [stm32h7x.cpu0] NVIC_DFSR 0x9
Debug: 1624 26435 cortex_m.c:346 cortex_m_fast_read_all_regs(): [stm32h7x.cpu0] read 53 32-bit registers
Debug: 1625 26435 cortex_m.c:873 cortex_m_debug_entry(): [stm32h7x.cpu0] entered debug state in core mode: Thread at PC 0x80a7c80, cpu in Non-Secure state, target->state: halted
Debug: 1626 26435 target.c:1815 target_call_event_callbacks(): target event 0 (gdb-halt) for core stm32h7x.cpu0
Debug: 1627 26435 target.c:1815 target_call_event_callbacks(): target event 1 (halted) for core stm32h7x.cpu0
User : 1628 26435 armv7m.c:741 armv7m_arch_state(): [stm32h7x.cpu0] halted due to debug-request, current mode: Thread 
xPSR: 0x01000000 pc: 0x080a7c80 msp: 0x24080000
Debug: 1629 26435 target.c:1815 target_call_event_callbacks(): target event 8 (gdb-end) for core stm32h7x.cpu0
Debug: 1630 26435 command.c:152 script_debug(): command - stm32h7x.cpu0 curstate
Debug: 1631 26435 command.c:152 script_debug(): command - stm32h7x.ap2 invoke-event reset-end
Debug: 1632 26435 command.c:152 script_debug(): command - stm32h7x.cpu0 invoke-event reset-end
Debug: 1633 26436 gdb_server.c:3439 gdb_v_packet(): wrote 915040 bytes from vFlash image to flash
Debug: 1634 26436 gdb_server.c:391 gdb_log_outgoing_packet(): [stm32h7x.cpu0] sending packet: $OK#9a
Debug: 1635 26438 gdb_server.c:375 gdb_log_incoming_packet(): [stm32h7x.cpu0] received packet: Pf=807c0a08
Debug: 1636 26438 gdb_server.c:391 gdb_log_outgoing_packet(): [stm32h7x.cpu0] sending packet: $OK#9a
Debug: 1637 26444 gdb_server.c:375 gdb_log_incoming_packet(): [stm32h7x.cpu0] received packet: m80a7c80,4
Debug: 1638 26444 gdb_server.c:1521 gdb_read_memory_packet(): addr: 0x00000000080a7c80, len: 0x00000004
Debug: 1639 26444 target.c:2447 target_read_buffer(): reading buffer of 4 byte at 0x080a7c80
Debug: 1640 26444 gdb_server.c:391 gdb_log_outgoing_packet(): [stm32h7x.cpu0] sending packet: $dff834d0#63
Debug: 1641 26448 gdb_server.c:375 gdb_log_incoming_packet(): [stm32h7x.cpu0] received packet: m80a7c80,2
Debug: 1642 26448 gdb_server.c:1521 gdb_read_memory_packet(): addr: 0x00000000080a7c80, len: 0x00000002
Debug: 1643 26448 target.c:2447 target_read_buffer(): reading buffer of 2 byte at 0x080a7c80
Debug: 1644 26449 gdb_server.c:391 gdb_log_outgoing_packet(): [stm32h7x.cpu0] sending packet: $dff8#68
Debug: 1645 26450 gdb_server.c:375 gdb_log_incoming_packet(): [stm32h7x.cpu0] received packet: m80a7c82,2
Debug: 1646 26450 gdb_server.c:1521 gdb_read_memory_packet(): addr: 0x00000000080a7c82, len: 0x00000002
Debug: 1647 26450 target.c:2447 target_read_buffer(): reading buffer of 2 byte at 0x080a7c82
Debug: 1648 26450 gdb_server.c:391 gdb_log_outgoing_packet(): [stm32h7x.cpu0] sending packet: $34d0#fb
Debug: 1649 26451 gdb_server.c:375 gdb_log_incoming_packet(): [stm32h7x.cpu0] received packet: m80a0240,40
Debug: 1650 26451 gdb_server.c:1521 gdb_read_memory_packet(): addr: 0x00000000080a0240, len: 0x00000040
Debug: 1651 26451 target.c:2447 target_read_buffer(): reading buffer of 64 byte at 0x080a0240
Debug: 1652 26453 gdb_server.c:391 gdb_log_outgoing_packet(): [stm32h7x.cpu0] sending packet: $82b000af7860fff7d9ffd7f7f9ff00bf0837bd4680bd80b584b002af142301930a2300934ff4006300220a490a4806f001f978607b68002b04d1d52207490848#6a
Debug: 1653 26455 gdb_server.c:375 gdb_log_incoming_packet(): [stm32h7x.cpu0] received packet: m80a0246,2
Debug: 1654 26455 gdb_server.c:1521 gdb_read_memory_packet(): addr: 0x00000000080a0246, len: 0x00000002
Debug: 1655 26455 target.c:2447 target_read_buffer(): reading buffer of 2 byte at 0x080a0246
Debug: 1656 26456 gdb_server.c:391 gdb_log_outgoing_packet(): [stm32h7x.cpu0] sending packet: $fff7#69
Debug: 1657 26504 gdb_server.c:375 gdb_log_incoming_packet(): [stm32h7x.cpu0] received packet: m80a0246,2
Debug: 1658 26504 gdb_server.c:1521 gdb_read_memory_packet(): addr: 0x00000000080a0246, len: 0x00000002
Debug: 1659 26504 target.c:2447 target_read_buffer(): reading buffer of 2 byte at 0x080a0246
Debug: 1660 26505 gdb_server.c:391 gdb_log_outgoing_packet(): [stm32h7x.cpu0] sending packet: $fff7#69
Debug: 1661 26511 gdb_server.c:375 gdb_log_incoming_packet(): [stm32h7x.cpu0] received packet: m80a7c80,4
Debug: 1662 26511 gdb_server.c:1521 gdb_read_memory_packet(): addr: 0x00000000080a7c80, len: 0x00000004
Debug: 1663 26511 target.c:2447 target_read_buffer(): reading buffer of 4 byte at 0x080a7c80
Debug: 1664 26512 gdb_server.c:391 gdb_log_outgoing_packet(): [stm32h7x.cpu0] sending packet: $dff834d0#63
Debug: 1665 26513 gdb_server.c:375 gdb_log_incoming_packet(): [stm32h7x.cpu0] received packet: m80a7c80,2
Debug: 1666 26513 gdb_server.c:1521 gdb_read_memory_packet(): addr: 0x00000000080a7c80, len: 0x00000002
Debug: 1667 26513 target.c:2447 target_read_buffer(): reading buffer of 2 byte at 0x080a7c80
Debug: 1668 26514 gdb_server.c:391 gdb_log_outgoing_packet(): [stm32h7x.cpu0] sending packet: $dff8#68
Debug: 1669 26515 gdb_server.c:375 gdb_log_incoming_packet(): [stm32h7x.cpu0] received packet: m80a7c82,2
Debug: 1670 26515 gdb_server.c:1521 gdb_read_memory_packet(): addr: 0x00000000080a7c82, len: 0x00000002
Debug: 1671 26515 target.c:2447 target_read_buffer(): reading buffer of 2 byte at 0x080a7c82
Debug: 1672 26515 gdb_server.c:391 gdb_log_outgoing_packet(): [stm32h7x.cpu0] sending packet: $34d0#fb
Debug: 1673 26517 gdb_server.c:375 gdb_log_incoming_packet(): [stm32h7x.cpu0] received packet: m80a7c80,4
Debug: 1674 26517 gdb_server.c:1521 gdb_read_memory_packet(): addr: 0x00000000080a7c80, len: 0x00000004
Debug: 1675 26517 target.c:2447 target_read_buffer(): reading buffer of 4 byte at 0x080a7c80
Debug: 1676 26518 gdb_server.c:391 gdb_log_outgoing_packet(): [stm32h7x.cpu0] sending packet: $dff834d0#63
Debug: 1677 26519 gdb_server.c:375 gdb_log_incoming_packet(): [stm32h7x.cpu0] received packet: m80a7c80,2
Debug: 1678 26519 gdb_server.c:1521 gdb_read_memory_packet(): addr: 0x00000000080a7c80, len: 0x00000002
Debug: 1679 26519 target.c:2447 target_read_buffer(): reading buffer of 2 byte at 0x080a7c80
Debug: 1680 26519 gdb_server.c:391 gdb_log_outgoing_packet(): [stm32h7x.cpu0] sending packet: $dff8#68
Debug: 1681 26520 gdb_server.c:375 gdb_log_incoming_packet(): [stm32h7x.cpu0] received packet: m80a7c82,2
Debug: 1682 26520 gdb_server.c:1521 gdb_read_memory_packet(): addr: 0x00000000080a7c82, len: 0x00000002
Debug: 1683 26520 target.c:2447 target_read_buffer(): reading buffer of 2 byte at 0x080a7c82
Debug: 1684 26521 gdb_server.c:391 gdb_log_outgoing_packet(): [stm32h7x.cpu0] sending packet: $34d0#fb
Debug: 1685 26533 gdb_server.c:375 gdb_log_incoming_packet(): [stm32h7x.cpu0] received packet: qSymbol::
Debug: 1686 26533 gdb_server.c:391 gdb_log_outgoing_packet(): [stm32h7x.cpu0] sending packet: $OK#9a
Debug: 1687 26535 gdb_server.c:375 gdb_log_incoming_packet(): [stm32h7x.cpu0] received packet: qSymbol::
Debug: 1688 26535 gdb_server.c:391 gdb_log_outgoing_packet(): [stm32h7x.cpu0] sending packet: $OK#9a
Debug: 1689 26539 gdb_server.c:375 gdb_log_incoming_packet(): [stm32h7x.cpu0] received packet: m80a0246,2
Debug: 1690 26539 gdb_server.c:1521 gdb_read_memory_packet(): addr: 0x00000000080a0246, len: 0x00000002
Debug: 1691 26539 target.c:2447 target_read_buffer(): reading buffer of 2 byte at 0x080a0246
Debug: 1692 26540 gdb_server.c:391 gdb_log_outgoing_packet(): [stm32h7x.cpu0] sending packet: $fff7#69
Debug: 1693 26541 gdb_server.c:375 gdb_log_incoming_packet(): [stm32h7x.cpu0] received packet: g
Debug: 1694 26541 gdb_server.c:391 gdb_log_outgoing_packet(): [stm32h7x.cpu0] sending packet: $0000000000000000000000000000000000000000000000000000000000000000000000000000000000000000000000000000000000000824ffffffff807c0a0800000001#ba
Debug: 1695 26564 gdb_server.c:375 gdb_log_incoming_packet(): [stm32h7x.cpu0] received packet: m80a7c80,4
Debug: 1696 26564 gdb_server.c:1521 gdb_read_memory_packet(): addr: 0x00000000080a7c80, len: 0x00000004
Debug: 1697 26564 target.c:2447 target_read_buffer(): reading buffer of 4 byte at 0x080a7c80
Debug: 1698 26564 gdb_server.c:391 gdb_log_outgoing_packet(): [stm32h7x.cpu0] sending packet: $dff834d0#63
Debug: 1699 26569 gdb_server.c:375 gdb_log_incoming_packet(): [stm32h7x.cpu0] received packet: m80a7c80,2
Debug: 1700 26569 gdb_server.c:1521 gdb_read_memory_packet(): addr: 0x00000000080a7c80, len: 0x00000002
Debug: 1701 26569 target.c:2447 target_read_buffer(): reading buffer of 2 byte at 0x080a7c80
Debug: 1702 26570 gdb_server.c:391 gdb_log_outgoing_packet(): [stm32h7x.cpu0] sending packet: $dff8#68
Debug: 1703 26571 gdb_server.c:375 gdb_log_incoming_packet(): [stm32h7x.cpu0] received packet: m80a7c82,2
Debug: 1704 26571 gdb_server.c:1521 gdb_read_memory_packet(): addr: 0x00000000080a7c82, len: 0x00000002
Debug: 1705 26571 target.c:2447 target_read_buffer(): reading buffer of 2 byte at 0x080a7c82
Debug: 1706 26571 gdb_server.c:391 gdb_log_outgoing_packet(): [stm32h7x.cpu0] sending packet: $34d0#fb
Debug: 1707 26572 gdb_server.c:375 gdb_log_incoming_packet(): [stm32h7x.cpu0] received packet: m8078240,40
Debug: 1708 26572 gdb_server.c:1521 gdb_read_memory_packet(): addr: 0x0000000008078240, len: 0x00000040
Debug: 1709 26573 target.c:2447 target_read_buffer(): reading buffer of 64 byte at 0x08078240
Debug: 1710 26574 gdb_server.c:391 gdb_log_outgoing_packet(): [stm32h7x.cpu0] sending packet: $80b58ab002af4ff47a733b61394828f0a1f8f8610321f86928f036f93649f86928f0c8fa07f110031a4641f20121f86928f08cfa0223fb7307f10f031a4641f2#89
Debug: 1711 26575 gdb_server.c:375 gdb_log_incoming_packet(): [stm32h7x.cpu0] received packet: m8078246,2
Debug: 1712 26576 gdb_server.c:1521 gdb_read_memory_packet(): addr: 0x0000000008078246, len: 0x00000002
Debug: 1713 26576 target.c:2447 target_read_buffer(): reading buffer of 2 byte at 0x08078246
Debug: 1714 26576 gdb_server.c:391 gdb_log_outgoing_packet(): [stm32h7x.cpu0] sending packet: $4ff4#34
Debug: 1715 26983 gdb_server.c:375 gdb_log_incoming_packet(): [stm32h7x.cpu0] received packet: m8079580,40
Debug: 1716 26983 gdb_server.c:1521 gdb_read_memory_packet(): addr: 0x0000000008079580, len: 0x00000040
Debug: 1717 26983 target.c:2447 target_read_buffer(): reading buffer of 64 byte at 0x08079580
Debug: 1718 26985 gdb_server.c:391 gdb_log_outgoing_packet(): [stm32h7x.cpu0] sending packet: $00e000bf7a680449002003f0aafb00bf1037bd4680bd00bff4990a0880b582b000af4ff0ff337b600023fb703b4601221946002002f0c0f90346fb70fb78012b#da
Debug: 1719 26986 gdb_server.c:375 gdb_log_incoming_packet(): [stm32h7x.cpu0] received packet: m80795c2,2
Debug: 1720 26986 gdb_server.c:1521 gdb_read_memory_packet(): addr: 0x00000000080795c2, len: 0x00000002
Debug: 1721 26986 target.c:2447 target_read_buffer(): reading buffer of 2 byte at 0x080795c2
Debug: 1722 26987 gdb_server.c:391 gdb_log_outgoing_packet(): [stm32h7x.cpu0] sending packet: $3b78#04
Debug: 1723 27212 gdb_server.c:375 gdb_log_incoming_packet(): [stm32h7x.cpu0] received packet: m809de40,40
Debug: 1724 27212 gdb_server.c:1521 gdb_read_memory_packet(): addr: 0x000000000809de40, len: 0x00000040
Debug: 1725 27212 target.c:2447 target_read_buffer(): reading buffer of 64 byte at 0x0809de40
Debug: 1726 27214 gdb_server.c:391 gdb_log_outgoing_packet(): [stm32h7x.cpu0] sending packet: $7b6803f5df717b68b3f810321a4605f090fb7b689b8d01339ab27b689a857b689a8d7b685a8500bf1037bd4680bd80b588b000af7860944b1a6892f8293043f0#0c
Debug: 1727 27214 gdb_server.c:375 gdb_log_incoming_packet(): [stm32h7x.cpu0] received packet: m809e0c8,4
Debug: 1728 27215 gdb_server.c:1521 gdb_read_memory_packet(): addr: 0x000000000809e0c8, len: 0x00000004
Debug: 1729 27215 target.c:2447 target_read_buffer(): reading buffer of 4 byte at 0x0809e0c8
Debug: 1730 27216 gdb_server.c:391 gdb_log_outgoing_packet(): [stm32h7x.cpu0] sending packet: $88720024#9f
Debug: 1731 27219 gdb_server.c:375 gdb_log_incoming_packet(): [stm32h7x.cpu0] received packet: m809deb2,2
Debug: 1732 27219 gdb_server.c:1521 gdb_read_memory_packet(): addr: 0x000000000809deb2, len: 0x00000002
Debug: 1733 27219 target.c:2447 target_read_buffer(): reading buffer of 2 byte at 0x0809deb2
Debug: 1734 27219 gdb_server.c:391 gdb_log_outgoing_packet(): [stm32h7x.cpu0] sending packet: $fff7#69
Debug: 1735 27718 gdb_server.c:375 gdb_log_incoming_packet(): [stm32h7x.cpu0] received packet: qXfer:threads:read::0,1000
Debug: 1736 27718 gdb_server.c:388 gdb_log_outgoing_packet(): [stm32h7x.cpu0] sending packet: $<binary-data-44-bytes>#02
Debug: 1737 27797 gdb_server.c:375 gdb_log_incoming_packet(): [stm32h7x.cpu0] received packet: Z1,80795c2,2
Debug: 1738 27797 gdb_server.c:1750 gdb_breakpoint_watchpoint_packet(): [stm32h7x.cpu0]
Debug: 1739 27797 target.c:2688 target_write_u32(): address: 0xe0002008, value: 0x080795c3
Debug: 1740 27797 cortex_m.c:1994 cortex_m_set_breakpoint(): [stm32h7x.cpu0] fpc_num 0 fpcr_value 0x80795c3
Debug: 1741 27797 cortex_m.c:2030 cortex_m_set_breakpoint(): [stm32h7x.cpu0] BPID: 0, Type: 0, Address: 0x080795c2 Length: 2 (n=0)
Debug: 1742 27797 breakpoints.c:88 breakpoint_add_internal(): [0] added hardware breakpoint at 0x080795c2 of length 0x00000002, (BPID: 0)
Debug: 1743 27797 gdb_server.c:391 gdb_log_outgoing_packet(): [stm32h7x.cpu0] sending packet: $OK#9a
Debug: 1744 27798 gdb_server.c:375 gdb_log_incoming_packet(): [stm32h7x.cpu0] received packet: Z1,809deb2,2
Debug: 1745 27798 gdb_server.c:1750 gdb_breakpoint_watchpoint_packet(): [stm32h7x.cpu0]
Debug: 1746 27798 target.c:2688 target_write_u32(): address: 0xe000200c, value: 0x0809deb3
Debug: 1747 27799 cortex_m.c:1994 cortex_m_set_breakpoint(): [stm32h7x.cpu0] fpc_num 1 fpcr_value 0x809deb3
Debug: 1748 27799 cortex_m.c:2030 cortex_m_set_breakpoint(): [stm32h7x.cpu0] BPID: 1, Type: 0, Address: 0x0809deb2 Length: 2 (n=1)
Debug: 1749 27799 breakpoints.c:88 breakpoint_add_internal(): [0] added hardware breakpoint at 0x0809deb2 of length 0x00000002, (BPID: 1)
Debug: 1750 27799 gdb_server.c:391 gdb_log_outgoing_packet(): [stm32h7x.cpu0] sending packet: $OK#9a
Debug: 1751 27799 gdb_server.c:375 gdb_log_incoming_packet(): [stm32h7x.cpu0] received packet: Z1,80a0246,2
Debug: 1752 27799 gdb_server.c:1750 gdb_breakpoint_watchpoint_packet(): [stm32h7x.cpu0]
Debug: 1753 27799 target.c:2688 target_write_u32(): address: 0xe0002010, value: 0x080a0247
Debug: 1754 27800 cortex_m.c:1994 cortex_m_set_breakpoint(): [stm32h7x.cpu0] fpc_num 2 fpcr_value 0x80a0247
Debug: 1755 27800 cortex_m.c:2030 cortex_m_set_breakpoint(): [stm32h7x.cpu0] BPID: 2, Type: 0, Address: 0x080a0246 Length: 2 (n=2)
Debug: 1756 27800 breakpoints.c:88 breakpoint_add_internal(): [0] added hardware breakpoint at 0x080a0246 of length 0x00000002, (BPID: 2)
Debug: 1757 27800 gdb_server.c:391 gdb_log_outgoing_packet(): [stm32h7x.cpu0] sending packet: $OK#9a
Debug: 1758 27801 gdb_server.c:375 gdb_log_incoming_packet(): [stm32h7x.cpu0] received packet: vCont?
Debug: 1759 27801 gdb_server.c:391 gdb_log_outgoing_packet(): [stm32h7x.cpu0] sending packet: $vCont;c;C;s;S#62
Debug: 1760 27801 gdb_server.c:375 gdb_log_incoming_packet(): [stm32h7x.cpu0] received packet: vCont;c
Debug: 1761 27802 gdb_server.c:3049 gdb_handle_vcont_packet(): target stm32h7x.cpu0 continue
Debug: 1762 27802 target.c:1815 target_call_event_callbacks(): target event 3 (resume-start) for core stm32h7x.cpu0
Debug: 1763 27802 target.c:2171 target_free_all_working_areas_restore(): freeing all working areas
Debug: 1764 27802 target.c:1941 print_wa_layout():    0x20000000-0x2000ffff (65536 bytes)
Debug: 1765 27802 armv7m.c:174 armv7m_restore_context():  
Debug: 1766 27802 armv7m.c:441 armv7m_write_core_reg(): write pc value 0x080a7c80
Debug: 1767 27803 target.c:1815 target_call_event_callbacks(): target event 2 (resumed) for core stm32h7x.cpu0
Debug: 1768 27803 cortex_m.c:1392 cortex_m_resume(): [stm32h7x.cpu0] resumed at 0x080a7c80
Debug: 1769 27803 target.c:1815 target_call_event_callbacks(): target event 4 (resume-end) for core stm32h7x.cpu0
Debug: 1770 27803 target.c:1815 target_call_event_callbacks(): target event 7 (gdb-start) for core stm32h7x.cpu0
Debug: 1771 27827 cortex_m.c:803 cortex_m_debug_entry(): [stm32h7x.cpu0]  
Debug: 1772 27829 cortex_m.c:544 cortex_m_clear_halt(): [stm32h7x.cpu0] NVIC_DFSR 0x3
Debug: 1773 27841 cortex_m.c:346 cortex_m_fast_read_all_regs(): [stm32h7x.cpu0] read 53 32-bit registers
Debug: 1774 27841 cortex_m.c:873 cortex_m_debug_entry(): [stm32h7x.cpu0] entered debug state in core mode: Thread at PC 0x80a0246, cpu in Non-Secure state, target->state: halted
Debug: 1775 27841 target.c:1815 target_call_event_callbacks(): target event 0 (gdb-halt) for core stm32h7x.cpu0
Debug: 1776 27841 gdb_server.c:148 gdb_last_signal(): [stm32h7x.cpu0] Debug reason is: BREAKPOINT
Debug: 1777 27841 gdb_server.c:391 gdb_log_outgoing_packet(): [stm32h7x.cpu0] sending packet: $T05#b9
Debug: 1778 27842 target.c:1815 target_call_event_callbacks(): target event 1 (halted) for core stm32h7x.cpu0
Debug: 1779 27842 target.c:1815 target_call_event_callbacks(): target event 8 (gdb-end) for core stm32h7x.cpu0
Debug: 1780 27843 gdb_server.c:375 gdb_log_incoming_packet(): [stm32h7x.cpu0] received packet: g
Debug: 1781 27843 gdb_server.c:391 gdb_log_outgoing_packet(): [stm32h7x.cpu0] sending packet: $00000000000000000000000000000000efbeaddeefbeaddeefbeadde50860024efbeaddeefbeaddeefbeaddeefbeadde0000000050860024dd600a0846020a0800000001#ff
Debug: 1782 27844 gdb_server.c:375 gdb_log_incoming_packet(): [stm32h7x.cpu0] received packet: qXfer:threads:read::0,1000
Debug: 1783 27844 gdb_server.c:388 gdb_log_outgoing_packet(): [stm32h7x.cpu0] sending packet: $<binary-data-44-bytes>#02
Debug: 1784 27845 gdb_server.c:375 gdb_log_incoming_packet(): [stm32h7x.cpu0] received packet: z1,80795c2,2
Debug: 1785 27845 gdb_server.c:1750 gdb_breakpoint_watchpoint_packet(): [stm32h7x.cpu0]
Debug: 1786 27845 cortex_m.c:2051 cortex_m_unset_breakpoint(): [stm32h7x.cpu0] BPID: 0, Type: 0, Address: 0x080795c2 Length: 2 (n=0)
Debug: 1787 27845 target.c:2688 target_write_u32(): address: 0xe0002008, value: 0x00000000
Debug: 1788 27846 breakpoints.c:296 breakpoint_free(): free BPID: 0 --> 0
Debug: 1789 27846 gdb_server.c:391 gdb_log_outgoing_packet(): [stm32h7x.cpu0] sending packet: $OK#9a
Debug: 1790 27847 gdb_server.c:375 gdb_log_incoming_packet(): [stm32h7x.cpu0] received packet: z1,809deb2,2
Debug: 1791 27847 gdb_server.c:1750 gdb_breakpoint_watchpoint_packet(): [stm32h7x.cpu0]
Debug: 1792 27847 cortex_m.c:2051 cortex_m_unset_breakpoint(): [stm32h7x.cpu0] BPID: 1, Type: 0, Address: 0x0809deb2 Length: 2 (n=1)
Debug: 1793 27847 target.c:2688 target_write_u32(): address: 0xe000200c, value: 0x00000000
Debug: 1794 27848 breakpoints.c:296 breakpoint_free(): free BPID: 1 --> 0
Debug: 1795 27848 gdb_server.c:391 gdb_log_outgoing_packet(): [stm32h7x.cpu0] sending packet: $OK#9a
Debug: 1796 27849 gdb_server.c:375 gdb_log_incoming_packet(): [stm32h7x.cpu0] received packet: z1,80a0246,2
Debug: 1797 27849 gdb_server.c:1750 gdb_breakpoint_watchpoint_packet(): [stm32h7x.cpu0]
Debug: 1798 27849 cortex_m.c:2051 cortex_m_unset_breakpoint(): [stm32h7x.cpu0] BPID: 2, Type: 0, Address: 0x080a0246 Length: 2 (n=2)
Debug: 1799 27849 target.c:2688 target_write_u32(): address: 0xe0002010, value: 0x00000000
Debug: 1800 27849 breakpoints.c:296 breakpoint_free(): free BPID: 2 --> 0
Debug: 1801 27849 gdb_server.c:391 gdb_log_outgoing_packet(): [stm32h7x.cpu0] sending packet: $OK#9a
Debug: 1802 27851 gdb_server.c:375 gdb_log_incoming_packet(): [stm32h7x.cpu0] received packet: m80a0246,4
Debug: 1803 27851 gdb_server.c:1521 gdb_read_memory_packet(): addr: 0x00000000080a0246, len: 0x00000004
Debug: 1804 27851 target.c:2447 target_read_buffer(): reading buffer of 4 byte at 0x080a0246
Debug: 1805 27851 gdb_server.c:391 gdb_log_outgoing_packet(): [stm32h7x.cpu0] sending packet: $fff7d9ff#d2
Debug: 1806 27852 gdb_server.c:375 gdb_log_incoming_packet(): [stm32h7x.cpu0] received packet: m24008640,40
Debug: 1807 27852 gdb_server.c:1521 gdb_read_memory_packet(): addr: 0x0000000024008640, len: 0x00000040
Debug: 1808 27852 target.c:2447 target_read_buffer(): reading buffer of 64 byte at 0x24008640
Debug: 1809 27853 gdb_server.c:391 gdb_log_outgoing_packet(): [stm32h7x.cpu0] sending packet: $000000000000000000000000000000000000000000000000efbeaddedd600a08787d00243c8207009c0000003087002400700052fc08002400700052c8850024#13
Debug: 1810 27856 gdb_server.c:375 gdb_log_incoming_packet(): [stm32h7x.cpu0] received packet: m80a60dc,4
Debug: 1811 27856 gdb_server.c:1521 gdb_read_memory_packet(): addr: 0x00000000080a60dc, len: 0x00000004
Debug: 1812 27856 target.c:2447 target_read_buffer(): reading buffer of 4 byte at 0x080a60dc
Debug: 1813 27858 gdb_server.c:391 gdb_log_outgoing_packet(): [stm32h7x.cpu0] sending packet: $90b583b0#fd
Debug: 1814 27865 gdb_server.c:375 gdb_log_incoming_packet(): [stm32h7x.cpu0] received packet: m80a60dc,4
Debug: 1815 27865 gdb_server.c:1521 gdb_read_memory_packet(): addr: 0x00000000080a60dc, len: 0x00000004
Debug: 1816 27866 target.c:2447 target_read_buffer(): reading buffer of 4 byte at 0x080a60dc
Debug: 1817 27867 gdb_server.c:391 gdb_log_outgoing_packet(): [stm32h7x.cpu0] sending packet: $90b583b0#fd
Debug: 1818 28779 gdb_server.c:375 gdb_log_incoming_packet(): [stm32h7x.cpu0] received packet: m240048e8,4
Debug: 1819 28779 gdb_server.c:1521 gdb_read_memory_packet(): addr: 0x00000000240048e8, len: 0x00000004
Debug: 1820 28779 target.c:2447 target_read_buffer(): reading buffer of 4 byte at 0x240048e8
Debug: 1821 28779 gdb_server.c:391 gdb_log_outgoing_packet(): [stm32h7x.cpu0] sending packet: $00000000#80
Debug: 1822 28821 gdb_server.c:375 gdb_log_incoming_packet(): [stm32h7x.cpu0] received packet: m240048ee,2
Debug: 1823 28821 gdb_server.c:1521 gdb_read_memory_packet(): addr: 0x00000000240048ee, len: 0x00000002
Debug: 1824 28821 target.c:2447 target_read_buffer(): reading buffer of 2 byte at 0x240048ee
Debug: 1825 28822 gdb_server.c:391 gdb_log_outgoing_packet(): [stm32h7x.cpu0] sending packet: $0000#c0
Debug: 1826 28836 gdb_server.c:375 gdb_log_incoming_packet(): [stm32h7x.cpu0] received packet: m240048f0,2
Debug: 1827 28836 gdb_server.c:1521 gdb_read_memory_packet(): addr: 0x00000000240048f0, len: 0x00000002
Debug: 1828 28836 target.c:2447 target_read_buffer(): reading buffer of 2 byte at 0x240048f0
Debug: 1829 28836 gdb_server.c:391 gdb_log_outgoing_packet(): [stm32h7x.cpu0] sending packet: $0000#c0
Debug: 1830 28852 gdb_server.c:375 gdb_log_incoming_packet(): [stm32h7x.cpu0] received packet: m240048f2,2
Debug: 1831 28852 gdb_server.c:1521 gdb_read_memory_packet(): addr: 0x00000000240048f2, len: 0x00000002
Debug: 1832 28852 target.c:2447 target_read_buffer(): reading buffer of 2 byte at 0x240048f2
Debug: 1833 28852 gdb_server.c:391 gdb_log_outgoing_packet(): [stm32h7x.cpu0] sending packet: $0000#c0
Debug: 1834 28868 gdb_server.c:375 gdb_log_incoming_packet(): [stm32h7x.cpu0] received packet: m240048f4,2
Debug: 1835 28868 gdb_server.c:1521 gdb_read_memory_packet(): addr: 0x00000000240048f4, len: 0x00000002
Debug: 1836 28868 target.c:2447 target_read_buffer(): reading buffer of 2 byte at 0x240048f4
Debug: 1837 28868 gdb_server.c:391 gdb_log_outgoing_packet(): [stm32h7x.cpu0] sending packet: $0000#c0
Debug: 1838 28883 gdb_server.c:375 gdb_log_incoming_packet(): [stm32h7x.cpu0] received packet: m240048f6,2
Debug: 1839 28883 gdb_server.c:1521 gdb_read_memory_packet(): addr: 0x00000000240048f6, len: 0x00000002
Debug: 1840 28883 target.c:2447 target_read_buffer(): reading buffer of 2 byte at 0x240048f6
Debug: 1841 28883 gdb_server.c:391 gdb_log_outgoing_packet(): [stm32h7x.cpu0] sending packet: $0000#c0
Debug: 1842 28899 gdb_server.c:375 gdb_log_incoming_packet(): [stm32h7x.cpu0] received packet: m240048f8,2
Debug: 1843 28899 gdb_server.c:1521 gdb_read_memory_packet(): addr: 0x00000000240048f8, len: 0x00000002
Debug: 1844 28899 target.c:2447 target_read_buffer(): reading buffer of 2 byte at 0x240048f8
Debug: 1845 28899 gdb_server.c:391 gdb_log_outgoing_packet(): [stm32h7x.cpu0] sending packet: $0000#c0
Debug: 1846 28914 gdb_server.c:375 gdb_log_incoming_packet(): [stm32h7x.cpu0] received packet: m240048ec,2
Debug: 1847 28914 gdb_server.c:1521 gdb_read_memory_packet(): addr: 0x00000000240048ec, len: 0x00000002
Debug: 1848 28914 target.c:2447 target_read_buffer(): reading buffer of 2 byte at 0x240048ec
Debug: 1849 28915 gdb_server.c:391 gdb_log_outgoing_packet(): [stm32h7x.cpu0] sending packet: $0000#c0
Info : 1850 39633 server.c:90 add_connection(): accepting 'rtt' connection on tcp/8765
Debug: 1851 39633 rtt_server.c:61 rtt_new_connection(): rtt: New connection for channel 0
Debug: 1852 39633 rtt.c:216 rtt_register_sink(): rtt: Registering sink for channel 0
Debug: 1853 39634 target.c:2447 target_read_buffer(): reading buffer of 24 byte at 0x20000060
Debug: 1854 39634 target.c:2382 target_write_buffer(): writing buffer of 15 byte at 0x200020a8
Debug: 1855 39635 target.c:2382 target_write_buffer(): writing buffer of 0 byte at 0x200020a8
Debug: 1856 39635 target.c:2688 target_write_u32(): address: 0x2000006c, value: 0x0000000f
Debug: 1857 39636 rtt.c:214 target_rtt_write_callback(): rtt: Wrote 15 bytes into down-channel 0
Debug: 1858 39672 target.c:2447 target_read_buffer(): reading buffer of 24 byte at 0x20000018
Debug: 1859 39672 target.c:2447 target_read_buffer(): reading buffer of 162 byte at 0x200000a8
Debug: 1860 39675 target.c:2688 target_write_u32(): address: 0x20000028, value: 0x000000a2
Debug: 1861 39779 target.c:2447 target_read_buffer(): reading buffer of 24 byte at 0x20000018
Debug: 1862 39887 target.c:2447 target_read_buffer(): reading buffer of 24 byte at 0x20000018
Debug: 1863 39997 target.c:2447 target_read_buffer(): reading buffer of 24 byte at 0x20000018
Debug: 1864 40104 target.c:2447 target_read_buffer(): reading buffer of 24 byte at 0x20000018
Debug: 1865 40212 target.c:2447 target_read_buffer(): reading buffer of 24 byte at 0x20000018
Debug: 1866 40321 target.c:2447 target_read_buffer(): reading buffer of 24 byte at 0x20000018
Debug: 1867 40431 target.c:2447 target_read_buffer(): reading buffer of 24 byte at 0x20000018
Debug: 1868 40541 target.c:2447 target_read_buffer(): reading buffer of 24 byte at 0x20000018
Debug: 1869 40650 target.c:2447 target_read_buffer(): reading buffer of 24 byte at 0x20000018
Debug: 1870 40758 target.c:2447 target_read_buffer(): reading buffer of 24 byte at 0x20000018
Debug: 1871 40866 target.c:2447 target_read_buffer(): reading buffer of 24 byte at 0x20000018
Debug: 1872 40975 target.c:2447 target_read_buffer(): reading buffer of 24 byte at 0x20000018
Debug: 1873 41037 gdb_server.c:375 gdb_log_incoming_packet(): [stm32h7x.cpu0] received packet: Z1,80795c2,2
Debug: 1874 41037 gdb_server.c:1750 gdb_breakpoint_watchpoint_packet(): [stm32h7x.cpu0]
Debug: 1875 41037 target.c:2688 target_write_u32(): address: 0xe0002008, value: 0x080795c3
Debug: 1876 41037 cortex_m.c:1994 cortex_m_set_breakpoint(): [stm32h7x.cpu0] fpc_num 0 fpcr_value 0x80795c3
Debug: 1877 41037 cortex_m.c:2030 cortex_m_set_breakpoint(): [stm32h7x.cpu0] BPID: 3, Type: 0, Address: 0x080795c2 Length: 2 (n=0)
Debug: 1878 41037 breakpoints.c:88 breakpoint_add_internal(): [0] added hardware breakpoint at 0x080795c2 of length 0x00000002, (BPID: 3)
Debug: 1879 41037 gdb_server.c:391 gdb_log_outgoing_packet(): [stm32h7x.cpu0] sending packet: $OK#9a
Debug: 1880 41038 gdb_server.c:375 gdb_log_incoming_packet(): [stm32h7x.cpu0] received packet: Z1,809deb2,2
Debug: 1881 41038 gdb_server.c:1750 gdb_breakpoint_watchpoint_packet(): [stm32h7x.cpu0]
Debug: 1882 41038 target.c:2688 target_write_u32(): address: 0xe000200c, value: 0x0809deb3
Debug: 1883 41038 cortex_m.c:1994 cortex_m_set_breakpoint(): [stm32h7x.cpu0] fpc_num 1 fpcr_value 0x809deb3
Debug: 1884 41038 cortex_m.c:2030 cortex_m_set_breakpoint(): [stm32h7x.cpu0] BPID: 4, Type: 0, Address: 0x0809deb2 Length: 2 (n=1)
Debug: 1885 41038 breakpoints.c:88 breakpoint_add_internal(): [0] added hardware breakpoint at 0x0809deb2 of length 0x00000002, (BPID: 4)
Debug: 1886 41038 gdb_server.c:391 gdb_log_outgoing_packet(): [stm32h7x.cpu0] sending packet: $OK#9a
Debug: 1887 41038 gdb_server.c:375 gdb_log_incoming_packet(): [stm32h7x.cpu0] received packet: vCont;c
Debug: 1888 41038 gdb_server.c:3049 gdb_handle_vcont_packet(): target stm32h7x.cpu0 continue
Debug: 1889 41038 target.c:1815 target_call_event_callbacks(): target event 3 (resume-start) for core stm32h7x.cpu0
Debug: 1890 41038 target.c:2171 target_free_all_working_areas_restore(): freeing all working areas
Debug: 1891 41039 target.c:2624 target_read_u16(): address: 0x080a0246, value: 0xf7ff
Debug: 1892 41039 armv7m.c:174 armv7m_restore_context():  
Debug: 1893 41039 target.c:1815 target_call_event_callbacks(): target event 2 (resumed) for core stm32h7x.cpu0
Debug: 1894 41039 cortex_m.c:1392 cortex_m_resume(): [stm32h7x.cpu0] resumed at 0x080a0246
Debug: 1895 41039 target.c:1815 target_call_event_callbacks(): target event 4 (resume-end) for core stm32h7x.cpu0
Debug: 1896 41039 target.c:1815 target_call_event_callbacks(): target event 7 (gdb-start) for core stm32h7x.cpu0
Debug: 1897 41083 target.c:2447 target_read_buffer(): reading buffer of 24 byte at 0x20000018
Debug: 1898 41083 target.c:2447 target_read_buffer(): reading buffer of 1024 byte at 0x2000014a
Debug: 1899 41094 target.c:2688 target_write_u32(): address: 0x20000028, value: 0x000004a2
Debug: 1900 41192 target.c:2447 target_read_buffer(): reading buffer of 24 byte at 0x20000018
Debug: 1901 41193 target.c:2447 target_read_buffer(): reading buffer of 181 byte at 0x2000054a
Debug: 1902 41196 target.c:2688 target_write_u32(): address: 0x20000028, value: 0x00000557
Debug: 1903 41300 target.c:2447 target_read_buffer(): reading buffer of 24 byte at 0x20000018
Debug: 1904 41301 target.c:2447 target_read_buffer(): reading buffer of 42 byte at 0x200005ff
Debug: 1905 41303 target.c:2688 target_write_u32(): address: 0x20000028, value: 0x00000581
Debug: 1906 41406 cortex_m.c:803 cortex_m_debug_entry(): [stm32h7x.cpu0]  
Debug: 1907 41408 cortex_m.c:544 cortex_m_clear_halt(): [stm32h7x.cpu0] NVIC_DFSR 0x3
Debug: 1908 41420 cortex_m.c:346 cortex_m_fast_read_all_regs(): [stm32h7x.cpu0] read 53 32-bit registers
Debug: 1909 41420 cortex_m.c:873 cortex_m_debug_entry(): [stm32h7x.cpu0] entered debug state in core mode: Thread at PC 0x809deb2, cpu in Non-Secure state, target->state: halted
Debug: 1910 41420 target.c:1815 target_call_event_callbacks(): target event 0 (gdb-halt) for core stm32h7x.cpu0
Debug: 1911 41420 gdb_server.c:148 gdb_last_signal(): [stm32h7x.cpu0] Debug reason is: BREAKPOINT
Debug: 1912 41420 gdb_server.c:391 gdb_log_outgoing_packet(): [stm32h7x.cpu0] sending packet: $T05#b9
Debug: 1913 41420 target.c:1815 target_call_event_callbacks(): target event 1 (halted) for core stm32h7x.cpu0
Debug: 1914 41420 target.c:1815 target_call_event_callbacks(): target event 8 (gdb-end) for core stm32h7x.cpu0
Debug: 1915 41420 target.c:2447 target_read_buffer(): reading buffer of 24 byte at 0x20000018
Debug: 1916 41421 target.c:2447 target_read_buffer(): reading buffer of 91 byte at 0x20000629
Debug: 1917 41423 target.c:2688 target_write_u32(): address: 0x20000028, value: 0x000005dc
Debug: 1918 41424 gdb_server.c:375 gdb_log_incoming_packet(): [stm32h7x.cpu0] received packet: g
Debug: 1919 41424 gdb_server.c:391 gdb_log_outgoing_packet(): [stm32h7x.cpu0] sending packet: $09000000d9b100240900000009000000efbeaddeefbeaddeefbeaddea8b20024efbeaddeefbeaddeefbeaddeefbeadde7b060020a8b20024b3de0908b2de090800000001#f6
Debug: 1920 41426 gdb_server.c:375 gdb_log_incoming_packet(): [stm32h7x.cpu0] received packet: qXfer:threads:read::0,1000
Debug: 1921 41426 gdb_server.c:388 gdb_log_outgoing_packet(): [stm32h7x.cpu0] sending packet: $<binary-data-44-bytes>#02
Debug: 1922 41427 gdb_server.c:375 gdb_log_incoming_packet(): [stm32h7x.cpu0] received packet: z1,80795c2,2
Debug: 1923 41427 gdb_server.c:1750 gdb_breakpoint_watchpoint_packet(): [stm32h7x.cpu0]
Debug: 1924 41427 cortex_m.c:2051 cortex_m_unset_breakpoint(): [stm32h7x.cpu0] BPID: 3, Type: 0, Address: 0x080795c2 Length: 2 (n=0)
Debug: 1925 41427 target.c:2688 target_write_u32(): address: 0xe0002008, value: 0x00000000
Debug: 1926 41427 breakpoints.c:296 breakpoint_free(): free BPID: 3 --> 0
Debug: 1927 41428 gdb_server.c:391 gdb_log_outgoing_packet(): [stm32h7x.cpu0] sending packet: $OK#9a
Debug: 1928 41428 gdb_server.c:375 gdb_log_incoming_packet(): [stm32h7x.cpu0] received packet: z1,809deb2,2
Debug: 1929 41429 gdb_server.c:1750 gdb_breakpoint_watchpoint_packet(): [stm32h7x.cpu0]
Debug: 1930 41429 cortex_m.c:2051 cortex_m_unset_breakpoint(): [stm32h7x.cpu0] BPID: 4, Type: 0, Address: 0x0809deb2 Length: 2 (n=1)
Debug: 1931 41429 target.c:2688 target_write_u32(): address: 0xe000200c, value: 0x00000000
Debug: 1932 41429 breakpoints.c:296 breakpoint_free(): free BPID: 4 --> 0
Debug: 1933 41429 gdb_server.c:391 gdb_log_outgoing_packet(): [stm32h7x.cpu0] sending packet: $OK#9a
Debug: 1934 41430 gdb_server.c:375 gdb_log_incoming_packet(): [stm32h7x.cpu0] received packet: m809deb2,4
Debug: 1935 41430 gdb_server.c:1521 gdb_read_memory_packet(): addr: 0x000000000809deb2, len: 0x00000004
Debug: 1936 41430 target.c:2447 target_read_buffer(): reading buffer of 4 byte at 0x0809deb2
Debug: 1937 41431 gdb_server.c:391 gdb_log_outgoing_packet(): [stm32h7x.cpu0] sending packet: $fff7cffd#fc
Debug: 1938 41432 gdb_server.c:375 gdb_log_incoming_packet(): [stm32h7x.cpu0] received packet: m2400b2c0,40
Debug: 1939 41432 gdb_server.c:1521 gdb_read_memory_packet(): addr: 0x000000002400b2c0, len: 0x00000040
Debug: 1940 41432 target.c:2447 target_read_buffer(): reading buffer of 64 byte at 0x2400b2c0
Debug: 1941 41434 gdb_server.c:391 gdb_log_outgoing_packet(): [stm32h7x.cpu0] sending packet: $00000000dd600a08efbeaddedd600a0823232323797d002450350000102500006473656d0000000000000000000000000201000028a00024a40e0024fcb20024#18
Debug: 1942 41435 gdb_server.c:375 gdb_log_incoming_packet(): [stm32h7x.cpu0] received packet: m80a60dc,4
Debug: 1943 41435 gdb_server.c:1521 gdb_read_memory_packet(): addr: 0x00000000080a60dc, len: 0x00000004
Debug: 1944 41435 target.c:2447 target_read_buffer(): reading buffer of 4 byte at 0x080a60dc
Debug: 1945 41436 gdb_server.c:391 gdb_log_outgoing_packet(): [stm32h7x.cpu0] sending packet: $90b583b0#fd
Debug: 1946 41437 gdb_server.c:375 gdb_log_incoming_packet(): [stm32h7x.cpu0] received packet: m2400b280,40
Debug: 1947 41437 gdb_server.c:1521 gdb_read_memory_packet(): addr: 0x000000002400b280, len: 0x00000040
Debug: 1948 41437 target.c:2447 target_read_buffer(): reading buffer of 64 byte at 0x2400b280
Debug: 1949 41438 gdb_server.c:391 gdb_log_outgoing_packet(): [stm32h7x.cpu0] sending packet: $88b20024ab420a089cb2002409000000a8b20024b3de0908907200240cc00d089872002490720024efbeadde0000000000000000000000000000000000000000#1f
Debug: 1950 41455 gdb_server.c:375 gdb_log_incoming_packet(): [stm32h7x.cpu0] received packet: m80a60dc,4
Debug: 1951 41455 gdb_server.c:1521 gdb_read_memory_packet(): addr: 0x00000000080a60dc, len: 0x00000004
Debug: 1952 41455 target.c:2447 target_read_buffer(): reading buffer of 4 byte at 0x080a60dc
Debug: 1953 41456 gdb_server.c:391 gdb_log_outgoing_packet(): [stm32h7x.cpu0] sending packet: $90b583b0#fd
Debug: 1954 41517 target.c:2447 target_read_buffer(): reading buffer of 24 byte at 0x20000018
Debug: 1955 41625 target.c:2447 target_read_buffer(): reading buffer of 24 byte at 0x20000018
Debug: 1956 41732 target.c:2447 target_read_buffer(): reading buffer of 24 byte at 0x20000018
Debug: 1957 41840 target.c:2447 target_read_buffer(): reading buffer of 24 byte at 0x20000018
Debug: 1958 41947 target.c:2447 target_read_buffer(): reading buffer of 24 byte at 0x20000018
Debug: 1959 42054 target.c:2447 target_read_buffer(): reading buffer of 24 byte at 0x20000018
Debug: 1960 42117 gdb_server.c:375 gdb_log_incoming_packet(): [stm32h7x.cpu0] received packet: m240048e8,4
Debug: 1961 42118 gdb_server.c:1521 gdb_read_memory_packet(): addr: 0x00000000240048e8, len: 0x00000004
Debug: 1962 42118 target.c:2447 target_read_buffer(): reading buffer of 4 byte at 0x240048e8
Debug: 1963 42118 gdb_server.c:391 gdb_log_outgoing_packet(): [stm32h7x.cpu0] sending packet: $00000000#80
Debug: 1964 42163 target.c:2447 target_read_buffer(): reading buffer of 24 byte at 0x20000018
Debug: 1965 42163 gdb_server.c:375 gdb_log_incoming_packet(): [stm32h7x.cpu0] received packet: m240048ee,2
Debug: 1966 42164 gdb_server.c:1521 gdb_read_memory_packet(): addr: 0x00000000240048ee, len: 0x00000002
Debug: 1967 42164 target.c:2447 target_read_buffer(): reading buffer of 2 byte at 0x240048ee
Debug: 1968 42164 gdb_server.c:391 gdb_log_outgoing_packet(): [stm32h7x.cpu0] sending packet: $0000#c0
Debug: 1969 42179 gdb_server.c:375 gdb_log_incoming_packet(): [stm32h7x.cpu0] received packet: m240048f0,2
Debug: 1970 42179 gdb_server.c:1521 gdb_read_memory_packet(): addr: 0x00000000240048f0, len: 0x00000002
Debug: 1971 42179 target.c:2447 target_read_buffer(): reading buffer of 2 byte at 0x240048f0
Debug: 1972 42179 gdb_server.c:391 gdb_log_outgoing_packet(): [stm32h7x.cpu0] sending packet: $0000#c0
Debug: 1973 42197 gdb_server.c:375 gdb_log_incoming_packet(): [stm32h7x.cpu0] received packet: m240048f2,2
Debug: 1974 42197 gdb_server.c:1521 gdb_read_memory_packet(): addr: 0x00000000240048f2, len: 0x00000002
Debug: 1975 42197 target.c:2447 target_read_buffer(): reading buffer of 2 byte at 0x240048f2
Debug: 1976 42197 gdb_server.c:391 gdb_log_outgoing_packet(): [stm32h7x.cpu0] sending packet: $0000#c0
Debug: 1977 42210 gdb_server.c:375 gdb_log_incoming_packet(): [stm32h7x.cpu0] received packet: m240048f4,2
Debug: 1978 42210 gdb_server.c:1521 gdb_read_memory_packet(): addr: 0x00000000240048f4, len: 0x00000002
Debug: 1979 42210 target.c:2447 target_read_buffer(): reading buffer of 2 byte at 0x240048f4
Debug: 1980 42210 gdb_server.c:391 gdb_log_outgoing_packet(): [stm32h7x.cpu0] sending packet: $0000#c0
Debug: 1981 42226 gdb_server.c:375 gdb_log_incoming_packet(): [stm32h7x.cpu0] received packet: m240048f6,2
Debug: 1982 42226 gdb_server.c:1521 gdb_read_memory_packet(): addr: 0x00000000240048f6, len: 0x00000002
Debug: 1983 42226 target.c:2447 target_read_buffer(): reading buffer of 2 byte at 0x240048f6
Debug: 1984 42226 gdb_server.c:391 gdb_log_outgoing_packet(): [stm32h7x.cpu0] sending packet: $0000#c0
Debug: 1985 42241 gdb_server.c:375 gdb_log_incoming_packet(): [stm32h7x.cpu0] received packet: m240048f8,2
Debug: 1986 42241 gdb_server.c:1521 gdb_read_memory_packet(): addr: 0x00000000240048f8, len: 0x00000002
Debug: 1987 42241 target.c:2447 target_read_buffer(): reading buffer of 2 byte at 0x240048f8
Debug: 1988 42241 gdb_server.c:391 gdb_log_outgoing_packet(): [stm32h7x.cpu0] sending packet: $0000#c0
Debug: 1989 42257 gdb_server.c:375 gdb_log_incoming_packet(): [stm32h7x.cpu0] received packet: m240048ec,2
Debug: 1990 42257 gdb_server.c:1521 gdb_read_memory_packet(): addr: 0x00000000240048ec, len: 0x00000002
Debug: 1991 42257 target.c:2447 target_read_buffer(): reading buffer of 2 byte at 0x240048ec
Debug: 1992 42257 gdb_server.c:391 gdb_log_outgoing_packet(): [stm32h7x.cpu0] sending packet: $0000#c0
Debug: 1993 42272 target.c:2447 target_read_buffer(): reading buffer of 24 byte at 0x20000018
Debug: 1994 42382 target.c:2447 target_read_buffer(): reading buffer of 24 byte at 0x20000018
Debug: 1995 42490 target.c:2447 target_read_buffer(): reading buffer of 24 byte at 0x20000018
Debug: 1996 42598 target.c:2447 target_read_buffer(): reading buffer of 24 byte at 0x20000018
Debug: 1997 42706 target.c:2447 target_read_buffer(): reading buffer of 24 byte at 0x20000018
Debug: 1998 42816 target.c:2447 target_read_buffer(): reading buffer of 24 byte at 0x20000018
Debug: 1999 42924 target.c:2447 target_read_buffer(): reading buffer of 24 byte at 0x20000018
Debug: 2000 43031 target.c:2447 target_read_buffer(): reading buffer of 24 byte at 0x20000018
Debug: 2001 43140 target.c:2447 target_read_buffer(): reading buffer of 24 byte at 0x20000018
Debug: 2002 43249 target.c:2447 target_read_buffer(): reading buffer of 24 byte at 0x20000018
Debug: 2003 43358 target.c:2447 target_read_buffer(): reading buffer of 24 byte at 0x20000018
Debug: 2004 43467 target.c:2447 target_read_buffer(): reading buffer of 24 byte at 0x20000018
Debug: 2005 43576 target.c:2447 target_read_buffer(): reading buffer of 24 byte at 0x20000018
Debug: 2006 43686 target.c:2447 target_read_buffer(): reading buffer of 24 byte at 0x20000018
Debug: 2007 43793 target.c:2447 target_read_buffer(): reading buffer of 24 byte at 0x20000018
Debug: 2008 43903 target.c:2447 target_read_buffer(): reading buffer of 24 byte at 0x20000018
Debug: 2009 44013 target.c:2447 target_read_buffer(): reading buffer of 24 byte at 0x20000018
Debug: 2010 44123 target.c:2447 target_read_buffer(): reading buffer of 24 byte at 0x20000018
Debug: 2011 44232 target.c:2447 target_read_buffer(): reading buffer of 24 byte at 0x20000018
Debug: 2012 44339 target.c:2447 target_read_buffer(): reading buffer of 24 byte at 0x20000018
Debug: 2013 44447 target.c:2447 target_read_buffer(): reading buffer of 24 byte at 0x20000018
Debug: 2014 44554 target.c:2447 target_read_buffer(): reading buffer of 24 byte at 0x20000018
Debug: 2015 44663 target.c:2447 target_read_buffer(): reading buffer of 24 byte at 0x20000018
Debug: 2016 44772 target.c:2447 target_read_buffer(): reading buffer of 24 byte at 0x20000018
Debug: 2017 44880 target.c:2447 target_read_buffer(): reading buffer of 24 byte at 0x20000018
Debug: 2018 44989 target.c:2447 target_read_buffer(): reading buffer of 24 byte at 0x20000018
Debug: 2019 45096 target.c:2447 target_read_buffer(): reading buffer of 24 byte at 0x20000018
Debug: 2020 45205 target.c:2447 target_read_buffer(): reading buffer of 24 byte at 0x20000018
Debug: 2021 45312 target.c:2447 target_read_buffer(): reading buffer of 24 byte at 0x20000018
Debug: 2022 45419 target.c:2447 target_read_buffer(): reading buffer of 24 byte at 0x20000018
Debug: 2023 45527 target.c:2447 target_read_buffer(): reading buffer of 24 byte at 0x20000018
Debug: 2024 45637 target.c:2447 target_read_buffer(): reading buffer of 24 byte at 0x20000018
Debug: 2025 45713 gdb_server.c:375 gdb_log_incoming_packet(): [stm32h7x.cpu0] received packet: Z1,80795c2,2
Debug: 2026 45713 gdb_server.c:1750 gdb_breakpoint_watchpoint_packet(): [stm32h7x.cpu0]
Debug: 2027 45714 target.c:2688 target_write_u32(): address: 0xe0002008, value: 0x080795c3
Debug: 2028 45714 cortex_m.c:1994 cortex_m_set_breakpoint(): [stm32h7x.cpu0] fpc_num 0 fpcr_value 0x80795c3
Debug: 2029 45714 cortex_m.c:2030 cortex_m_set_breakpoint(): [stm32h7x.cpu0] BPID: 5, Type: 0, Address: 0x080795c2 Length: 2 (n=0)
Debug: 2030 45714 breakpoints.c:88 breakpoint_add_internal(): [0] added hardware breakpoint at 0x080795c2 of length 0x00000002, (BPID: 5)
Debug: 2031 45714 gdb_server.c:391 gdb_log_outgoing_packet(): [stm32h7x.cpu0] sending packet: $OK#9a
Debug: 2032 45714 gdb_server.c:375 gdb_log_incoming_packet(): [stm32h7x.cpu0] received packet: vCont;s:0;c:0
Debug: 2033 45714 gdb_server.c:3129 gdb_handle_vcont_packet(): request to step current core only
Debug: 2034 45714 gdb_server.c:3137 gdb_handle_vcont_packet(): target stm32h7x.cpu0 single-step thread 0
Debug: 2035 45714 target.c:1815 target_call_event_callbacks(): target event 7 (gdb-start) for core stm32h7x.cpu0
Debug: 2036 45714 target.c:1815 target_call_event_callbacks(): target event 5 (step-start) for core stm32h7x.cpu0
Debug: 2037 45715 target.c:2624 target_read_u16(): address: 0x0809deb2, value: 0xf7ff
Debug: 2038 45715 armv7m.c:174 armv7m_restore_context():  
Debug: 2039 45715 target.c:1815 target_call_event_callbacks(): target event 2 (resumed) for core stm32h7x.cpu0
Debug: 2040 45715 target.c:2688 target_write_u32(): address: 0xe000200c, value: 0x0809deb3
Debug: 2041 45715 cortex_m.c:1994 cortex_m_set_breakpoint(): [stm32h7x.cpu0] fpc_num 1 fpcr_value 0x809deb3
Debug: 2042 45715 cortex_m.c:2030 cortex_m_set_breakpoint(): [stm32h7x.cpu0] BPID: 6, Type: 0, Address: 0x0809deb2 Length: 2 (n=1)
Debug: 2043 45716 breakpoints.c:88 breakpoint_add_internal(): [0] added hardware breakpoint at 0x0809deb2 of length 0x00000002, (BPID: 6)
Debug: 2044 45716 cortex_m.c:1520 cortex_m_step(): [stm32h7x.cpu0] Starting core to serve pending interrupts
Debug: 2045 45716 cortex_m.c:2051 cortex_m_unset_breakpoint(): [stm32h7x.cpu0] BPID: 6, Type: 0, Address: 0x0809deb2 Length: 2 (n=1)
Debug: 2046 45716 target.c:2688 target_write_u32(): address: 0xe000200c, value: 0x00000000
Debug: 2047 45717 breakpoints.c:296 breakpoint_free(): free BPID: 6 --> 0
Debug: 2048 45719 cortex_m.c:1579 cortex_m_step(): [stm32h7x.cpu0] target stepped dcb_dhcsr = 0x1030007 nvic_icsr = 0x0
Debug: 2049 45719 cortex_m.c:803 cortex_m_debug_entry(): [stm32h7x.cpu0]  
Debug: 2050 45720 cortex_m.c:544 cortex_m_clear_halt(): [stm32h7x.cpu0] NVIC_DFSR 0x3
Debug: 2051 45730 cortex_m.c:346 cortex_m_fast_read_all_regs(): [stm32h7x.cpu0] read 53 32-bit registers
Debug: 2052 45731 cortex_m.c:873 cortex_m_debug_entry(): [stm32h7x.cpu0] entered debug state in core mode: Thread at PC 0x809da54, cpu in Non-Secure state, target->state: halted
Debug: 2053 45731 target.c:1815 target_call_event_callbacks(): target event 0 (gdb-halt) for core stm32h7x.cpu0
Debug: 2054 45731 target.c:1815 target_call_event_callbacks(): target event 1 (halted) for core stm32h7x.cpu0
Debug: 2055 45731 target.c:1815 target_call_event_callbacks(): target event 8 (gdb-end) for core stm32h7x.cpu0
Debug: 2056 45731 cortex_m.c:1588 cortex_m_step(): [stm32h7x.cpu0] target stepped dcb_dhcsr = 0x30003 nvic_icsr = 0x0
Debug: 2057 45731 target.c:1815 target_call_event_callbacks(): target event 6 (step-end) for core stm32h7x.cpu0
Debug: 2058 45731 gdb_server.c:148 gdb_last_signal(): [stm32h7x.cpu0] Debug reason is: SINGLESTEP
Debug: 2059 45731 gdb_server.c:391 gdb_log_outgoing_packet(): [stm32h7x.cpu0] sending packet: $T05#b9
Debug: 2060 45732 gdb_server.c:375 gdb_log_incoming_packet(): [stm32h7x.cpu0] received packet: g
Debug: 2061 45732 gdb_server.c:391 gdb_log_outgoing_packet(): [stm32h7x.cpu0] sending packet: $09000000d9b100240900000009000000efbeaddeefbeaddeefbeaddea8b20024efbeaddeefbeaddeefbeaddeefbeadde7b060020a8b20024b7de090854da090800000001#cb
Debug: 2062 45733 gdb_server.c:375 gdb_log_incoming_packet(): [stm32h7x.cpu0] received packet: m809da54,4
Debug: 2063 45733 gdb_server.c:1521 gdb_read_memory_packet(): addr: 0x000000000809da54, len: 0x00000004
Debug: 2064 45733 target.c:2447 target_read_buffer(): reading buffer of 4 byte at 0x0809da54
Debug: 2065 45734 gdb_server.c:391 gdb_log_outgoing_packet(): [stm32h7x.cpu0] sending packet: $80b582b0#fb
Debug: 2066 45734 gdb_server.c:375 gdb_log_incoming_packet(): [stm32h7x.cpu0] received packet: m809deb6,4
Debug: 2067 45734 gdb_server.c:1521 gdb_read_memory_packet(): addr: 0x000000000809deb6, len: 0x00000004
Debug: 2068 45735 target.c:2447 target_read_buffer(): reading buffer of 4 byte at 0x0809deb6
Debug: 2069 45735 gdb_server.c:391 gdb_log_outgoing_packet(): [stm32h7x.cpu0] sending packet: $f860fb68#3a
Debug: 2070 45736 gdb_server.c:375 gdb_log_incoming_packet(): [stm32h7x.cpu0] received packet: m2400b2c0,40
Debug: 2071 45736 gdb_server.c:1521 gdb_read_memory_packet(): addr: 0x000000002400b2c0, len: 0x00000040
Debug: 2072 45736 target.c:2447 target_read_buffer(): reading buffer of 64 byte at 0x2400b2c0
Debug: 2073 45737 gdb_server.c:391 gdb_log_outgoing_packet(): [stm32h7x.cpu0] sending packet: $00000000dd600a08efbeaddedd600a0823232323797d002450350000102500006473656d0000000000000000000000000201000028a00024a40e0024fcb20024#18
Debug: 2074 45738 target.c:2447 target_read_buffer(): reading buffer of 24 byte at 0x20000018
Debug: 2075 45739 gdb_server.c:375 gdb_log_incoming_packet(): [stm32h7x.cpu0] received packet: m809da40,40
Debug: 2076 45739 gdb_server.c:1521 gdb_read_memory_packet(): addr: 0x000000000809da40, len: 0x00000040
Debug: 2077 45739 target.c:2447 target_read_buffer(): reading buffer of 64 byte at 0x0809da40
Debug: 2078 45740 gdb_server.c:391 gdb_log_outgoing_packet(): [stm32h7x.cpu0] sending packet: $0837bd4680bd00bf88720024b0c00d0810c00d0880b582b000af0023fb701e4b1b68002b04d1a2221c491d4806f0d8fd194b1b68d3f814327b607b68002b1cd1#b6
Debug: 2079 45741 gdb_server.c:375 gdb_log_incoming_packet(): [stm32h7x.cpu0] received packet: m809da5a,2
Debug: 2080 45741 gdb_server.c:1521 gdb_read_memory_packet(): addr: 0x000000000809da5a, len: 0x00000002
Debug: 2081 45741 target.c:2447 target_read_buffer(): reading buffer of 2 byte at 0x0809da5a
Debug: 2082 45741 gdb_server.c:391 gdb_log_outgoing_packet(): [stm32h7x.cpu0] sending packet: $0023#c5
Debug: 2083 45742 gdb_server.c:375 gdb_log_incoming_packet(): [stm32h7x.cpu0] received packet: Z1,809da5a,2
Debug: 2084 45742 gdb_server.c:1750 gdb_breakpoint_watchpoint_packet(): [stm32h7x.cpu0]
Debug: 2085 45742 target.c:2688 target_write_u32(): address: 0xe000200c, value: 0x0809da5b
Debug: 2086 45742 cortex_m.c:1994 cortex_m_set_breakpoint(): [stm32h7x.cpu0] fpc_num 1 fpcr_value 0x809da5b
Debug: 2087 45742 cortex_m.c:2030 cortex_m_set_breakpoint(): [stm32h7x.cpu0] BPID: 7, Type: 0, Address: 0x0809da5a Length: 2 (n=1)
Debug: 2088 45742 breakpoints.c:88 breakpoint_add_internal(): [0] added hardware breakpoint at 0x0809da5a of length 0x00000002, (BPID: 7)
Debug: 2089 45743 gdb_server.c:391 gdb_log_outgoing_packet(): [stm32h7x.cpu0] sending packet: $OK#9a
Debug: 2090 45743 gdb_server.c:375 gdb_log_incoming_packet(): [stm32h7x.cpu0] received packet: Z1,809deb2,2
Debug: 2091 45743 gdb_server.c:1750 gdb_breakpoint_watchpoint_packet(): [stm32h7x.cpu0]
Debug: 2092 45743 target.c:2688 target_write_u32(): address: 0xe0002010, value: 0x0809deb3
Debug: 2093 45744 cortex_m.c:1994 cortex_m_set_breakpoint(): [stm32h7x.cpu0] fpc_num 2 fpcr_value 0x809deb3
Debug: 2094 45744 cortex_m.c:2030 cortex_m_set_breakpoint(): [stm32h7x.cpu0] BPID: 8, Type: 0, Address: 0x0809deb2 Length: 2 (n=2)
Debug: 2095 45744 breakpoints.c:88 breakpoint_add_internal(): [0] added hardware breakpoint at 0x0809deb2 of length 0x00000002, (BPID: 8)
Debug: 2096 45744 gdb_server.c:391 gdb_log_outgoing_packet(): [stm32h7x.cpu0] sending packet: $OK#9a
Debug: 2097 45745 gdb_server.c:375 gdb_log_incoming_packet(): [stm32h7x.cpu0] received packet: vCont;c
Debug: 2098 45745 gdb_server.c:3049 gdb_handle_vcont_packet(): target stm32h7x.cpu0 continue
Debug: 2099 45745 target.c:1815 target_call_event_callbacks(): target event 3 (resume-start) for core stm32h7x.cpu0
Debug: 2100 45745 target.c:2171 target_free_all_working_areas_restore(): freeing all working areas
Debug: 2101 45745 armv7m.c:174 armv7m_restore_context():  
Debug: 2102 45745 target.c:1815 target_call_event_callbacks(): target event 2 (resumed) for core stm32h7x.cpu0
Debug: 2103 45745 cortex_m.c:1392 cortex_m_resume(): [stm32h7x.cpu0] resumed at 0x0809da54
Debug: 2104 45745 target.c:1815 target_call_event_callbacks(): target event 4 (resume-end) for core stm32h7x.cpu0
Debug: 2105 45745 target.c:1815 target_call_event_callbacks(): target event 7 (gdb-start) for core stm32h7x.cpu0
Debug: 2106 45838 cortex_m.c:803 cortex_m_debug_entry(): [stm32h7x.cpu0]  
Debug: 2107 45839 cortex_m.c:544 cortex_m_clear_halt(): [stm32h7x.cpu0] NVIC_DFSR 0x3
Debug: 2108 45850 cortex_m.c:346 cortex_m_fast_read_all_regs(): [stm32h7x.cpu0] read 53 32-bit registers
Debug: 2109 45850 cortex_m.c:873 cortex_m_debug_entry(): [stm32h7x.cpu0] entered debug state in core mode: Thread at PC 0x809da5a, cpu in Non-Secure state, target->state: halted
Debug: 2110 45850 target.c:1815 target_call_event_callbacks(): target event 0 (gdb-halt) for core stm32h7x.cpu0
Debug: 2111 45850 gdb_server.c:148 gdb_last_signal(): [stm32h7x.cpu0] Debug reason is: BREAKPOINT
Debug: 2112 45850 gdb_server.c:391 gdb_log_outgoing_packet(): [stm32h7x.cpu0] sending packet: $T05#b9
Debug: 2113 45850 target.c:1815 target_call_event_callbacks(): target event 1 (halted) for core stm32h7x.cpu0
Debug: 2114 45850 target.c:1815 target_call_event_callbacks(): target event 8 (gdb-end) for core stm32h7x.cpu0
Debug: 2115 45850 target.c:2447 target_read_buffer(): reading buffer of 24 byte at 0x20000018
Debug: 2116 45851 gdb_server.c:375 gdb_log_incoming_packet(): [stm32h7x.cpu0] received packet: g
Debug: 2117 45851 gdb_server.c:391 gdb_log_outgoing_packet(): [stm32h7x.cpu0] sending packet: $09000000d9b100240900000009000000efbeaddeefbeaddeefbeadde98b20024efbeaddeefbeaddeefbeaddeefbeadde7b06002098b20024b7de09085ada090800000001#a8
Debug: 2118 45852 gdb_server.c:375 gdb_log_incoming_packet(): [stm32h7x.cpu0] received packet: z1,809da5a,2
Debug: 2119 45852 gdb_server.c:1750 gdb_breakpoint_watchpoint_packet(): [stm32h7x.cpu0]
Debug: 2120 45852 cortex_m.c:2051 cortex_m_unset_breakpoint(): [stm32h7x.cpu0] BPID: 7, Type: 0, Address: 0x0809da5a Length: 2 (n=1)
Debug: 2121 45852 target.c:2688 target_write_u32(): address: 0xe000200c, value: 0x00000000
Debug: 2122 45852 breakpoints.c:296 breakpoint_free(): free BPID: 7 --> 0
Debug: 2123 45852 gdb_server.c:391 gdb_log_outgoing_packet(): [stm32h7x.cpu0] sending packet: $OK#9a
Debug: 2124 45853 gdb_server.c:375 gdb_log_incoming_packet(): [stm32h7x.cpu0] received packet: m809da5a,4
Debug: 2125 45853 gdb_server.c:1521 gdb_read_memory_packet(): addr: 0x000000000809da5a, len: 0x00000004
Debug: 2126 45853 target.c:2447 target_read_buffer(): reading buffer of 4 byte at 0x0809da5a
Debug: 2127 45854 gdb_server.c:391 gdb_log_outgoing_packet(): [stm32h7x.cpu0] sending packet: $0023fb70#f4
Debug: 2128 45854 gdb_server.c:375 gdb_log_incoming_packet(): [stm32h7x.cpu0] received packet: m2400b280,40
Debug: 2129 45854 gdb_server.c:1521 gdb_read_memory_packet(): addr: 0x000000002400b280, len: 0x00000040
Debug: 2130 45855 target.c:2447 target_read_buffer(): reading buffer of 64 byte at 0x2400b280
Debug: 2131 45856 gdb_server.c:391 gdb_log_outgoing_packet(): [stm32h7x.cpu0] sending packet: $efbeaddeefbeadde09000000d9b1002409000000090000007b060020b7de0908a8b20024b7de0908efbeadde0000000000000000000000000000000000000000#8b
Debug: 2132 45857 gdb_server.c:375 gdb_log_incoming_packet(): [stm32h7x.cpu0] received packet: m809deb6,4
Debug: 2133 45857 gdb_server.c:1521 gdb_read_memory_packet(): addr: 0x000000000809deb6, len: 0x00000004
Debug: 2134 45857 target.c:2447 target_read_buffer(): reading buffer of 4 byte at 0x0809deb6
Debug: 2135 45857 gdb_server.c:391 gdb_log_outgoing_packet(): [stm32h7x.cpu0] sending packet: $f860fb68#3a
Debug: 2136 45858 gdb_server.c:375 gdb_log_incoming_packet(): [stm32h7x.cpu0] received packet: m2400b2c0,40
Debug: 2137 45858 gdb_server.c:1521 gdb_read_memory_packet(): addr: 0x000000002400b2c0, len: 0x00000040
Debug: 2138 45858 target.c:2447 target_read_buffer(): reading buffer of 64 byte at 0x2400b2c0
Debug: 2139 45859 gdb_server.c:391 gdb_log_outgoing_packet(): [stm32h7x.cpu0] sending packet: $00000000dd600a08efbeaddedd600a0823232323797d002450350000102500006473656d0000000000000000000000000201000028a00024a40e0024fcb20024#18
Debug: 2140 45860 gdb_server.c:375 gdb_log_incoming_packet(): [stm32h7x.cpu0] received packet: m809da40,40
Debug: 2141 45860 gdb_server.c:1521 gdb_read_memory_packet(): addr: 0x000000000809da40, len: 0x00000040
Debug: 2142 45860 target.c:2447 target_read_buffer(): reading buffer of 64 byte at 0x0809da40
Debug: 2143 45862 gdb_server.c:391 gdb_log_outgoing_packet(): [stm32h7x.cpu0] sending packet: $0837bd4680bd00bf88720024b0c00d0810c00d0880b582b000af0023fb701e4b1b68002b04d1a2221c491d4806f0d8fd194b1b68d3f814327b607b68002b1cd1#b6
Debug: 2144 45862 gdb_server.c:375 gdb_log_incoming_packet(): [stm32h7x.cpu0] received packet: qXfer:threads:read::0,1000
Debug: 2145 45862 gdb_server.c:388 gdb_log_outgoing_packet(): [stm32h7x.cpu0] sending packet: $<binary-data-44-bytes>#02
Debug: 2146 45863 gdb_server.c:375 gdb_log_incoming_packet(): [stm32h7x.cpu0] received packet: z1,80795c2,2
Debug: 2147 45863 gdb_server.c:1750 gdb_breakpoint_watchpoint_packet(): [stm32h7x.cpu0]
Debug: 2148 45863 cortex_m.c:2051 cortex_m_unset_breakpoint(): [stm32h7x.cpu0] BPID: 5, Type: 0, Address: 0x080795c2 Length: 2 (n=0)
Debug: 2149 45863 target.c:2688 target_write_u32(): address: 0xe0002008, value: 0x00000000
Debug: 2150 45864 breakpoints.c:296 breakpoint_free(): free BPID: 5 --> 0
Debug: 2151 45864 gdb_server.c:391 gdb_log_outgoing_packet(): [stm32h7x.cpu0] sending packet: $OK#9a
Debug: 2152 45865 gdb_server.c:375 gdb_log_incoming_packet(): [stm32h7x.cpu0] received packet: z1,809deb2,2
Debug: 2153 45865 gdb_server.c:1750 gdb_breakpoint_watchpoint_packet(): [stm32h7x.cpu0]
Debug: 2154 45865 cortex_m.c:2051 cortex_m_unset_breakpoint(): [stm32h7x.cpu0] BPID: 8, Type: 0, Address: 0x0809deb2 Length: 2 (n=2)
Debug: 2155 45865 target.c:2688 target_write_u32(): address: 0xe0002010, value: 0x00000000
Debug: 2156 45865 breakpoints.c:296 breakpoint_free(): free BPID: 8 --> 0
Debug: 2157 45865 gdb_server.c:391 gdb_log_outgoing_packet(): [stm32h7x.cpu0] sending packet: $OK#9a
Debug: 2158 45866 gdb_server.c:375 gdb_log_incoming_packet(): [stm32h7x.cpu0] received packet: m809da5a,4
Debug: 2159 45866 gdb_server.c:1521 gdb_read_memory_packet(): addr: 0x000000000809da5a, len: 0x00000004
Debug: 2160 45867 target.c:2447 target_read_buffer(): reading buffer of 4 byte at 0x0809da5a
Debug: 2161 45867 gdb_server.c:391 gdb_log_outgoing_packet(): [stm32h7x.cpu0] sending packet: $0023fb70#f4
Debug: 2162 45885 gdb_server.c:375 gdb_log_incoming_packet(): [stm32h7x.cpu0] received packet: m809deb6,4
Debug: 2163 45885 gdb_server.c:1521 gdb_read_memory_packet(): addr: 0x000000000809deb6, len: 0x00000004
Debug: 2164 45885 target.c:2447 target_read_buffer(): reading buffer of 4 byte at 0x0809deb6
Debug: 2165 45886 gdb_server.c:391 gdb_log_outgoing_packet(): [stm32h7x.cpu0] sending packet: $f860fb68#3a
Debug: 2166 45887 gdb_server.c:375 gdb_log_incoming_packet(): [stm32h7x.cpu0] received packet: m80a60dc,4
Debug: 2167 45887 gdb_server.c:1521 gdb_read_memory_packet(): addr: 0x00000000080a60dc, len: 0x00000004
Debug: 2168 45887 target.c:2447 target_read_buffer(): reading buffer of 4 byte at 0x080a60dc
Debug: 2169 45887 gdb_server.c:391 gdb_log_outgoing_packet(): [stm32h7x.cpu0] sending packet: $90b583b0#fd
Debug: 2170 45889 gdb_server.c:375 gdb_log_incoming_packet(): [stm32h7x.cpu0] received packet: m80a60dc,4
Debug: 2171 45889 gdb_server.c:1521 gdb_read_memory_packet(): addr: 0x00000000080a60dc, len: 0x00000004
Debug: 2172 45889 target.c:2447 target_read_buffer(): reading buffer of 4 byte at 0x080a60dc
Debug: 2173 45889 gdb_server.c:391 gdb_log_outgoing_packet(): [stm32h7x.cpu0] sending packet: $90b583b0#fd
Debug: 2174 45946 target.c:2447 target_read_buffer(): reading buffer of 24 byte at 0x20000018
Debug: 2175 46057 target.c:2447 target_read_buffer(): reading buffer of 24 byte at 0x20000018
Debug: 2176 46164 target.c:2447 target_read_buffer(): reading buffer of 24 byte at 0x20000018
Debug: 2177 46260 gdb_server.c:375 gdb_log_incoming_packet(): [stm32h7x.cpu0] received packet: m240048e8,4
Debug: 2178 46260 gdb_server.c:1521 gdb_read_memory_packet(): addr: 0x00000000240048e8, len: 0x00000004
Debug: 2179 46260 target.c:2447 target_read_buffer(): reading buffer of 4 byte at 0x240048e8
Debug: 2180 46261 gdb_server.c:391 gdb_log_outgoing_packet(): [stm32h7x.cpu0] sending packet: $00000000#80
Debug: 2181 46273 target.c:2447 target_read_buffer(): reading buffer of 24 byte at 0x20000018
Debug: 2182 46274 gdb_server.c:375 gdb_log_incoming_packet(): [stm32h7x.cpu0] received packet: m240048ee,2
Debug: 2183 46274 gdb_server.c:1521 gdb_read_memory_packet(): addr: 0x00000000240048ee, len: 0x00000002
Debug: 2184 46274 target.c:2447 target_read_buffer(): reading buffer of 2 byte at 0x240048ee
Debug: 2185 46275 gdb_server.c:391 gdb_log_outgoing_packet(): [stm32h7x.cpu0] sending packet: $0000#c0
Debug: 2186 46290 gdb_server.c:375 gdb_log_incoming_packet(): [stm32h7x.cpu0] received packet: m240048f0,2
Debug: 2187 46290 gdb_server.c:1521 gdb_read_memory_packet(): addr: 0x00000000240048f0, len: 0x00000002
Debug: 2188 46290 target.c:2447 target_read_buffer(): reading buffer of 2 byte at 0x240048f0
Debug: 2189 46291 gdb_server.c:391 gdb_log_outgoing_packet(): [stm32h7x.cpu0] sending packet: $0000#c0
Debug: 2190 46306 gdb_server.c:375 gdb_log_incoming_packet(): [stm32h7x.cpu0] received packet: m240048f2,2
Debug: 2191 46306 gdb_server.c:1521 gdb_read_memory_packet(): addr: 0x00000000240048f2, len: 0x00000002
Debug: 2192 46306 target.c:2447 target_read_buffer(): reading buffer of 2 byte at 0x240048f2
Debug: 2193 46306 gdb_server.c:391 gdb_log_outgoing_packet(): [stm32h7x.cpu0] sending packet: $0000#c0
Debug: 2194 46321 gdb_server.c:375 gdb_log_incoming_packet(): [stm32h7x.cpu0] received packet: m240048f4,2
Debug: 2195 46321 gdb_server.c:1521 gdb_read_memory_packet(): addr: 0x00000000240048f4, len: 0x00000002
Debug: 2196 46321 target.c:2447 target_read_buffer(): reading buffer of 2 byte at 0x240048f4
Debug: 2197 46321 gdb_server.c:391 gdb_log_outgoing_packet(): [stm32h7x.cpu0] sending packet: $0000#c0
Debug: 2198 46336 gdb_server.c:375 gdb_log_incoming_packet(): [stm32h7x.cpu0] received packet: m240048f6,2
Debug: 2199 46336 gdb_server.c:1521 gdb_read_memory_packet(): addr: 0x00000000240048f6, len: 0x00000002
Debug: 2200 46337 target.c:2447 target_read_buffer(): reading buffer of 2 byte at 0x240048f6
Debug: 2201 46337 gdb_server.c:391 gdb_log_outgoing_packet(): [stm32h7x.cpu0] sending packet: $0000#c0
Debug: 2202 46352 gdb_server.c:375 gdb_log_incoming_packet(): [stm32h7x.cpu0] received packet: m240048f8,2
Debug: 2203 46352 gdb_server.c:1521 gdb_read_memory_packet(): addr: 0x00000000240048f8, len: 0x00000002
Debug: 2204 46352 target.c:2447 target_read_buffer(): reading buffer of 2 byte at 0x240048f8
Debug: 2205 46353 gdb_server.c:391 gdb_log_outgoing_packet(): [stm32h7x.cpu0] sending packet: $0000#c0
Debug: 2206 46366 gdb_server.c:375 gdb_log_incoming_packet(): [stm32h7x.cpu0] received packet: m240048ec,2
Debug: 2207 46367 gdb_server.c:1521 gdb_read_memory_packet(): addr: 0x00000000240048ec, len: 0x00000002
Debug: 2208 46367 target.c:2447 target_read_buffer(): reading buffer of 2 byte at 0x240048ec
Debug: 2209 46367 gdb_server.c:391 gdb_log_outgoing_packet(): [stm32h7x.cpu0] sending packet: $0000#c0
Debug: 2210 46382 target.c:2447 target_read_buffer(): reading buffer of 24 byte at 0x20000018
Debug: 2211 46490 target.c:2447 target_read_buffer(): reading buffer of 24 byte at 0x20000018
Debug: 2212 46599 target.c:2447 target_read_buffer(): reading buffer of 24 byte at 0x20000018
Debug: 2213 46709 target.c:2447 target_read_buffer(): reading buffer of 24 byte at 0x20000018
Debug: 2214 46819 target.c:2447 target_read_buffer(): reading buffer of 24 byte at 0x20000018
Debug: 2215 46925 target.c:2447 target_read_buffer(): reading buffer of 24 byte at 0x20000018
Debug: 2216 47033 target.c:2447 target_read_buffer(): reading buffer of 24 byte at 0x20000018
Debug: 2217 47142 target.c:2447 target_read_buffer(): reading buffer of 24 byte at 0x20000018
Debug: 2218 47249 target.c:2447 target_read_buffer(): reading buffer of 24 byte at 0x20000018
Debug: 2219 47358 target.c:2447 target_read_buffer(): reading buffer of 24 byte at 0x20000018
Debug: 2220 47466 target.c:2447 target_read_buffer(): reading buffer of 24 byte at 0x20000018
Debug: 2221 47574 target.c:2447 target_read_buffer(): reading buffer of 24 byte at 0x20000018
Debug: 2222 47683 target.c:2447 target_read_buffer(): reading buffer of 24 byte at 0x20000018
Debug: 2223 47791 target.c:2447 target_read_buffer(): reading buffer of 24 byte at 0x20000018
Debug: 2224 47900 target.c:2447 target_read_buffer(): reading buffer of 24 byte at 0x20000018
Debug: 2225 48009 target.c:2447 target_read_buffer(): reading buffer of 24 byte at 0x20000018
Debug: 2226 48118 target.c:2447 target_read_buffer(): reading buffer of 24 byte at 0x20000018
Debug: 2227 48227 target.c:2447 target_read_buffer(): reading buffer of 24 byte at 0x20000018
Debug: 2228 48336 target.c:2447 target_read_buffer(): reading buffer of 24 byte at 0x20000018
Debug: 2229 48445 target.c:2447 target_read_buffer(): reading buffer of 24 byte at 0x20000018
Debug: 2230 48553 target.c:2447 target_read_buffer(): reading buffer of 24 byte at 0x20000018
Debug: 2231 48615 gdb_server.c:375 gdb_log_incoming_packet(): [stm32h7x.cpu0] received packet: Z1,80795c2,2
Debug: 2232 48615 gdb_server.c:1750 gdb_breakpoint_watchpoint_packet(): [stm32h7x.cpu0]
Debug: 2233 48615 target.c:2688 target_write_u32(): address: 0xe0002008, value: 0x080795c3
Debug: 2234 48616 cortex_m.c:1994 cortex_m_set_breakpoint(): [stm32h7x.cpu0] fpc_num 0 fpcr_value 0x80795c3
Debug: 2235 48616 cortex_m.c:2030 cortex_m_set_breakpoint(): [stm32h7x.cpu0] BPID: 9, Type: 0, Address: 0x080795c2 Length: 2 (n=0)
Debug: 2236 48616 breakpoints.c:88 breakpoint_add_internal(): [0] added hardware breakpoint at 0x080795c2 of length 0x00000002, (BPID: 9)
Debug: 2237 48616 gdb_server.c:391 gdb_log_outgoing_packet(): [stm32h7x.cpu0] sending packet: $OK#9a
Debug: 2238 48616 gdb_server.c:375 gdb_log_incoming_packet(): [stm32h7x.cpu0] received packet: Z1,809deb2,2
Debug: 2239 48616 gdb_server.c:1750 gdb_breakpoint_watchpoint_packet(): [stm32h7x.cpu0]
Debug: 2240 48616 target.c:2688 target_write_u32(): address: 0xe000200c, value: 0x0809deb3
Debug: 2241 48616 cortex_m.c:1994 cortex_m_set_breakpoint(): [stm32h7x.cpu0] fpc_num 1 fpcr_value 0x809deb3
Debug: 2242 48616 cortex_m.c:2030 cortex_m_set_breakpoint(): [stm32h7x.cpu0] BPID: 10, Type: 0, Address: 0x0809deb2 Length: 2 (n=1)
Debug: 2243 48616 breakpoints.c:88 breakpoint_add_internal(): [0] added hardware breakpoint at 0x0809deb2 of length 0x00000002, (BPID: 10)
Debug: 2244 48617 gdb_server.c:391 gdb_log_outgoing_packet(): [stm32h7x.cpu0] sending packet: $OK#9a
Debug: 2245 48617 gdb_server.c:375 gdb_log_incoming_packet(): [stm32h7x.cpu0] received packet: vCont;s:0;c
Debug: 2246 48617 gdb_server.c:3137 gdb_handle_vcont_packet(): target stm32h7x.cpu0 single-step thread 0
Debug: 2247 48617 target.c:1815 target_call_event_callbacks(): target event 7 (gdb-start) for core stm32h7x.cpu0
Debug: 2248 48617 target.c:1815 target_call_event_callbacks(): target event 5 (step-start) for core stm32h7x.cpu0
Debug: 2249 48617 target.c:2624 target_read_u16(): address: 0x0809da5a, value: 0x2300
Debug: 2250 48617 armv7m.c:174 armv7m_restore_context():  
Debug: 2251 48617 target.c:1815 target_call_event_callbacks(): target event 2 (resumed) for core stm32h7x.cpu0
Debug: 2252 48617 target.c:2688 target_write_u32(): address: 0xe0002010, value: 0x0809da5b
Debug: 2253 48618 cortex_m.c:1994 cortex_m_set_breakpoint(): [stm32h7x.cpu0] fpc_num 2 fpcr_value 0x809da5b
Debug: 2254 48618 cortex_m.c:2030 cortex_m_set_breakpoint(): [stm32h7x.cpu0] BPID: 11, Type: 0, Address: 0x0809da5a Length: 2 (n=2)
Debug: 2255 48618 breakpoints.c:88 breakpoint_add_internal(): [0] added hardware breakpoint at 0x0809da5a of length 0x00000002, (BPID: 11)
Debug: 2256 48618 cortex_m.c:1520 cortex_m_step(): [stm32h7x.cpu0] Starting core to serve pending interrupts
Debug: 2257 48619 cortex_m.c:2051 cortex_m_unset_breakpoint(): [stm32h7x.cpu0] BPID: 11, Type: 0, Address: 0x0809da5a Length: 2 (n=2)
Debug: 2258 48619 target.c:2688 target_write_u32(): address: 0xe0002010, value: 0x00000000
Debug: 2259 48619 breakpoints.c:296 breakpoint_free(): free BPID: 11 --> 0
Debug: 2260 48621 cortex_m.c:1579 cortex_m_step(): [stm32h7x.cpu0] target stepped dcb_dhcsr = 0x1030007 nvic_icsr = 0x0
Debug: 2261 48621 cortex_m.c:803 cortex_m_debug_entry(): [stm32h7x.cpu0]  
Debug: 2262 48622 cortex_m.c:544 cortex_m_clear_halt(): [stm32h7x.cpu0] NVIC_DFSR 0x3
Debug: 2263 48632 cortex_m.c:346 cortex_m_fast_read_all_regs(): [stm32h7x.cpu0] read 53 32-bit registers
Debug: 2264 48632 cortex_m.c:873 cortex_m_debug_entry(): [stm32h7x.cpu0] entered debug state in core mode: Thread at PC 0x809da5c, cpu in Non-Secure state, target->state: halted
Debug: 2265 48632 target.c:1815 target_call_event_callbacks(): target event 0 (gdb-halt) for core stm32h7x.cpu0
Debug: 2266 48632 target.c:1815 target_call_event_callbacks(): target event 1 (halted) for core stm32h7x.cpu0
Debug: 2267 48632 target.c:1815 target_call_event_callbacks(): target event 8 (gdb-end) for core stm32h7x.cpu0
Debug: 2268 48632 cortex_m.c:1588 cortex_m_step(): [stm32h7x.cpu0] target stepped dcb_dhcsr = 0x30003 nvic_icsr = 0x0
Debug: 2269 48632 target.c:1815 target_call_event_callbacks(): target event 6 (step-end) for core stm32h7x.cpu0
Debug: 2270 48633 gdb_server.c:148 gdb_last_signal(): [stm32h7x.cpu0] Debug reason is: SINGLESTEP
Debug: 2271 48633 gdb_server.c:391 gdb_log_outgoing_packet(): [stm32h7x.cpu0] sending packet: $T05#b9
Debug: 2272 48633 gdb_server.c:375 gdb_log_incoming_packet(): [stm32h7x.cpu0] received packet: g
Debug: 2273 48633 gdb_server.c:391 gdb_log_outgoing_packet(): [stm32h7x.cpu0] sending packet: $09000000d9b100240900000000000000efbeaddeefbeaddeefbeadde98b20024efbeaddeefbeaddeefbeaddeefbeadde7b06002098b20024b7de09085cda090800000041#a5
Debug: 2274 48633 gdb_server.c:375 gdb_log_incoming_packet(): [stm32h7x.cpu0] received packet: vCont;s:0;c
Debug: 2275 48633 gdb_server.c:3137 gdb_handle_vcont_packet(): target stm32h7x.cpu0 single-step thread 0
Debug: 2276 48633 target.c:1815 target_call_event_callbacks(): target event 7 (gdb-start) for core stm32h7x.cpu0
Debug: 2277 48633 target.c:1815 target_call_event_callbacks(): target event 5 (step-start) for core stm32h7x.cpu0
Debug: 2278 48633 armv7m.c:174 armv7m_restore_context():  
Debug: 2279 48633 target.c:1815 target_call_event_callbacks(): target event 2 (resumed) for core stm32h7x.cpu0
Debug: 2280 48633 target.c:2688 target_write_u32(): address: 0xe0002010, value: 0x0809da5d
Debug: 2281 48634 cortex_m.c:1994 cortex_m_set_breakpoint(): [stm32h7x.cpu0] fpc_num 2 fpcr_value 0x809da5d
Debug: 2282 48634 cortex_m.c:2030 cortex_m_set_breakpoint(): [stm32h7x.cpu0] BPID: 12, Type: 0, Address: 0x0809da5c Length: 2 (n=2)
Debug: 2283 48634 breakpoints.c:88 breakpoint_add_internal(): [0] added hardware breakpoint at 0x0809da5c of length 0x00000002, (BPID: 12)
Debug: 2284 48634 cortex_m.c:1520 cortex_m_step(): [stm32h7x.cpu0] Starting core to serve pending interrupts
Debug: 2285 48634 cortex_m.c:2051 cortex_m_unset_breakpoint(): [stm32h7x.cpu0] BPID: 12, Type: 0, Address: 0x0809da5c Length: 2 (n=2)
Debug: 2286 48634 target.c:2688 target_write_u32(): address: 0xe0002010, value: 0x00000000
Debug: 2287 48635 breakpoints.c:296 breakpoint_free(): free BPID: 12 --> 0
Debug: 2288 48637 cortex_m.c:1579 cortex_m_step(): [stm32h7x.cpu0] target stepped dcb_dhcsr = 0x1030007 nvic_icsr = 0x0
Debug: 2289 48637 cortex_m.c:803 cortex_m_debug_entry(): [stm32h7x.cpu0]  
Debug: 2290 48638 cortex_m.c:544 cortex_m_clear_halt(): [stm32h7x.cpu0] NVIC_DFSR 0x3
Debug: 2291 48646 cortex_m.c:346 cortex_m_fast_read_all_regs(): [stm32h7x.cpu0] read 53 32-bit registers
Debug: 2292 48646 cortex_m.c:873 cortex_m_debug_entry(): [stm32h7x.cpu0] entered debug state in core mode: Thread at PC 0x809da5e, cpu in Non-Secure state, target->state: halted
Debug: 2293 48646 target.c:1815 target_call_event_callbacks(): target event 0 (gdb-halt) for core stm32h7x.cpu0
Debug: 2294 48646 target.c:1815 target_call_event_callbacks(): target event 1 (halted) for core stm32h7x.cpu0
Debug: 2295 48646 target.c:1815 target_call_event_callbacks(): target event 8 (gdb-end) for core stm32h7x.cpu0
Debug: 2296 48646 cortex_m.c:1588 cortex_m_step(): [stm32h7x.cpu0] target stepped dcb_dhcsr = 0x30003 nvic_icsr = 0x0
Debug: 2297 48646 target.c:1815 target_call_event_callbacks(): target event 6 (step-end) for core stm32h7x.cpu0
Debug: 2298 48648 gdb_server.c:148 gdb_last_signal(): [stm32h7x.cpu0] Debug reason is: SINGLESTEP
Debug: 2299 48648 gdb_server.c:391 gdb_log_outgoing_packet(): [stm32h7x.cpu0] sending packet: $T05#b9
Debug: 2300 48648 gdb_server.c:375 gdb_log_incoming_packet(): [stm32h7x.cpu0] received packet: g
Debug: 2301 48648 gdb_server.c:391 gdb_log_outgoing_packet(): [stm32h7x.cpu0] sending packet: $09000000d9b100240900000000000000efbeaddeefbeaddeefbeadde98b20024efbeaddeefbeaddeefbeaddeefbeadde7b06002098b20024b7de09085eda090800000041#a7
Debug: 2302 48648 gdb_server.c:375 gdb_log_incoming_packet(): [stm32h7x.cpu0] received packet: m809da5e,4
Debug: 2303 48648 gdb_server.c:1521 gdb_read_memory_packet(): addr: 0x000000000809da5e, len: 0x00000004
Debug: 2304 48648 target.c:2447 target_read_buffer(): reading buffer of 4 byte at 0x0809da5e
Debug: 2305 48648 gdb_server.c:391 gdb_log_outgoing_packet(): [stm32h7x.cpu0] sending packet: $1e4b1b68#2d
Debug: 2306 48648 gdb_server.c:375 gdb_log_incoming_packet(): [stm32h7x.cpu0] received packet: m2400b280,40
Debug: 2307 48649 gdb_server.c:1521 gdb_read_memory_packet(): addr: 0x000000002400b280, len: 0x00000040
Debug: 2308 48649 target.c:2447 target_read_buffer(): reading buffer of 64 byte at 0x2400b280
Debug: 2309 48650 gdb_server.c:391 gdb_log_outgoing_packet(): [stm32h7x.cpu0] sending packet: $09000000000000007b060020b7de09085cda0908000000417b060000b7de0908a8b20024b7de0908efbeadde0000000000000000000000000000000000000000#68
Debug: 2310 48651 gdb_server.c:375 gdb_log_incoming_packet(): [stm32h7x.cpu0] received packet: qXfer:threads:read::0,1000
Debug: 2311 48651 gdb_server.c:388 gdb_log_outgoing_packet(): [stm32h7x.cpu0] sending packet: $<binary-data-44-bytes>#02
Debug: 2312 48651 gdb_server.c:375 gdb_log_incoming_packet(): [stm32h7x.cpu0] received packet: z1,80795c2,2
Debug: 2313 48651 gdb_server.c:1750 gdb_breakpoint_watchpoint_packet(): [stm32h7x.cpu0]
Debug: 2314 48651 cortex_m.c:2051 cortex_m_unset_breakpoint(): [stm32h7x.cpu0] BPID: 9, Type: 0, Address: 0x080795c2 Length: 2 (n=0)
Debug: 2315 48651 target.c:2688 target_write_u32(): address: 0xe0002008, value: 0x00000000
Debug: 2316 48651 breakpoints.c:296 breakpoint_free(): free BPID: 9 --> 0
Debug: 2317 48651 gdb_server.c:391 gdb_log_outgoing_packet(): [stm32h7x.cpu0] sending packet: $OK#9a
Debug: 2318 48651 gdb_server.c:375 gdb_log_incoming_packet(): [stm32h7x.cpu0] received packet: z1,809deb2,2
Debug: 2319 48651 gdb_server.c:1750 gdb_breakpoint_watchpoint_packet(): [stm32h7x.cpu0]
Debug: 2320 48651 cortex_m.c:2051 cortex_m_unset_breakpoint(): [stm32h7x.cpu0] BPID: 10, Type: 0, Address: 0x0809deb2 Length: 2 (n=1)
Debug: 2321 48651 target.c:2688 target_write_u32(): address: 0xe000200c, value: 0x00000000
Debug: 2322 48652 breakpoints.c:296 breakpoint_free(): free BPID: 10 --> 0
Debug: 2323 48652 gdb_server.c:391 gdb_log_outgoing_packet(): [stm32h7x.cpu0] sending packet: $OK#9a
Debug: 2324 48652 target.c:2447 target_read_buffer(): reading buffer of 24 byte at 0x20000018
Debug: 2325 48653 gdb_server.c:375 gdb_log_incoming_packet(): [stm32h7x.cpu0] received packet: m809da5e,4
Debug: 2326 48653 gdb_server.c:1521 gdb_read_memory_packet(): addr: 0x000000000809da5e, len: 0x00000004
Debug: 2327 48653 target.c:2447 target_read_buffer(): reading buffer of 4 byte at 0x0809da5e
Debug: 2328 48654 gdb_server.c:391 gdb_log_outgoing_packet(): [stm32h7x.cpu0] sending packet: $1e4b1b68#2d
Debug: 2329 48677 gdb_server.c:375 gdb_log_incoming_packet(): [stm32h7x.cpu0] received packet: m809deb6,4
Debug: 2330 48677 gdb_server.c:1521 gdb_read_memory_packet(): addr: 0x000000000809deb6, len: 0x00000004
Debug: 2331 48677 target.c:2447 target_read_buffer(): reading buffer of 4 byte at 0x0809deb6
Debug: 2332 48677 gdb_server.c:391 gdb_log_outgoing_packet(): [stm32h7x.cpu0] sending packet: $f860fb68#3a
Debug: 2333 48677 gdb_server.c:375 gdb_log_incoming_packet(): [stm32h7x.cpu0] received packet: m2400b2c0,40
Debug: 2334 48677 gdb_server.c:1521 gdb_read_memory_packet(): addr: 0x000000002400b2c0, len: 0x00000040
Debug: 2335 48677 target.c:2447 target_read_buffer(): reading buffer of 64 byte at 0x2400b2c0
Debug: 2336 48678 gdb_server.c:391 gdb_log_outgoing_packet(): [stm32h7x.cpu0] sending packet: $00000000dd600a08efbeaddedd600a0823232323797d002450350000102500006473656d0000000000000000000000000201000028a00024a40e0024fcb20024#18
Debug: 2337 48679 gdb_server.c:375 gdb_log_incoming_packet(): [stm32h7x.cpu0] received packet: m80a60dc,4
Debug: 2338 48679 gdb_server.c:1521 gdb_read_memory_packet(): addr: 0x00000000080a60dc, len: 0x00000004
Debug: 2339 48680 target.c:2447 target_read_buffer(): reading buffer of 4 byte at 0x080a60dc
Debug: 2340 48680 gdb_server.c:391 gdb_log_outgoing_packet(): [stm32h7x.cpu0] sending packet: $90b583b0#fd
Debug: 2341 48680 gdb_server.c:375 gdb_log_incoming_packet(): [stm32h7x.cpu0] received packet: m80a60dc,4
Debug: 2342 48680 gdb_server.c:1521 gdb_read_memory_packet(): addr: 0x00000000080a60dc, len: 0x00000004
Debug: 2343 48680 target.c:2447 target_read_buffer(): reading buffer of 4 byte at 0x080a60dc
Debug: 2344 48680 gdb_server.c:391 gdb_log_outgoing_packet(): [stm32h7x.cpu0] sending packet: $90b583b0#fd
Debug: 2345 48754 target.c:2447 target_read_buffer(): reading buffer of 24 byte at 0x20000018
Debug: 2346 48866 target.c:2447 target_read_buffer(): reading buffer of 24 byte at 0x20000018
Debug: 2347 48974 target.c:2447 target_read_buffer(): reading buffer of 24 byte at 0x20000018
Debug: 2348 49083 target.c:2447 target_read_buffer(): reading buffer of 24 byte at 0x20000018
Debug: 2349 49146 gdb_server.c:375 gdb_log_incoming_packet(): [stm32h7x.cpu0] received packet: m240048e8,4
Debug: 2350 49146 gdb_server.c:1521 gdb_read_memory_packet(): addr: 0x00000000240048e8, len: 0x00000004
Debug: 2351 49146 target.c:2447 target_read_buffer(): reading buffer of 4 byte at 0x240048e8
Debug: 2352 49147 gdb_server.c:391 gdb_log_outgoing_packet(): [stm32h7x.cpu0] sending packet: $00000000#80
Debug: 2353 49190 target.c:2447 target_read_buffer(): reading buffer of 24 byte at 0x20000018
Debug: 2354 49205 gdb_server.c:375 gdb_log_incoming_packet(): [stm32h7x.cpu0] received packet: m240048ee,2
Debug: 2355 49205 gdb_server.c:1521 gdb_read_memory_packet(): addr: 0x00000000240048ee, len: 0x00000002
Debug: 2356 49205 target.c:2447 target_read_buffer(): reading buffer of 2 byte at 0x240048ee
Debug: 2357 49206 gdb_server.c:391 gdb_log_outgoing_packet(): [stm32h7x.cpu0] sending packet: $0000#c0
Debug: 2358 49221 gdb_server.c:375 gdb_log_incoming_packet(): [stm32h7x.cpu0] received packet: m240048f0,2
Debug: 2359 49221 gdb_server.c:1521 gdb_read_memory_packet(): addr: 0x00000000240048f0, len: 0x00000002
Debug: 2360 49221 target.c:2447 target_read_buffer(): reading buffer of 2 byte at 0x240048f0
Debug: 2361 49222 gdb_server.c:391 gdb_log_outgoing_packet(): [stm32h7x.cpu0] sending packet: $0000#c0
Debug: 2362 49236 gdb_server.c:375 gdb_log_incoming_packet(): [stm32h7x.cpu0] received packet: m240048f2,2
Debug: 2363 49236 gdb_server.c:1521 gdb_read_memory_packet(): addr: 0x00000000240048f2, len: 0x00000002
Debug: 2364 49236 target.c:2447 target_read_buffer(): reading buffer of 2 byte at 0x240048f2
Debug: 2365 49236 gdb_server.c:391 gdb_log_outgoing_packet(): [stm32h7x.cpu0] sending packet: $0000#c0
Debug: 2366 49251 gdb_server.c:375 gdb_log_incoming_packet(): [stm32h7x.cpu0] received packet: m240048f4,2
Debug: 2367 49251 gdb_server.c:1521 gdb_read_memory_packet(): addr: 0x00000000240048f4, len: 0x00000002
Debug: 2368 49251 target.c:2447 target_read_buffer(): reading buffer of 2 byte at 0x240048f4
Debug: 2369 49251 gdb_server.c:391 gdb_log_outgoing_packet(): [stm32h7x.cpu0] sending packet: $0000#c0
Debug: 2370 49267 gdb_server.c:375 gdb_log_incoming_packet(): [stm32h7x.cpu0] received packet: m240048f6,2
Debug: 2371 49267 gdb_server.c:1521 gdb_read_memory_packet(): addr: 0x00000000240048f6, len: 0x00000002
Debug: 2372 49267 target.c:2447 target_read_buffer(): reading buffer of 2 byte at 0x240048f6
Debug: 2373 49267 gdb_server.c:391 gdb_log_outgoing_packet(): [stm32h7x.cpu0] sending packet: $0000#c0
Debug: 2374 49282 gdb_server.c:375 gdb_log_incoming_packet(): [stm32h7x.cpu0] received packet: m240048f8,2
Debug: 2375 49282 gdb_server.c:1521 gdb_read_memory_packet(): addr: 0x00000000240048f8, len: 0x00000002
Debug: 2376 49282 target.c:2447 target_read_buffer(): reading buffer of 2 byte at 0x240048f8
Debug: 2377 49282 gdb_server.c:391 gdb_log_outgoing_packet(): [stm32h7x.cpu0] sending packet: $0000#c0
Debug: 2378 49297 target.c:2447 target_read_buffer(): reading buffer of 24 byte at 0x20000018
Debug: 2379 49298 gdb_server.c:375 gdb_log_incoming_packet(): [stm32h7x.cpu0] received packet: m240048ec,2
Debug: 2380 49298 gdb_server.c:1521 gdb_read_memory_packet(): addr: 0x00000000240048ec, len: 0x00000002
Debug: 2381 49298 target.c:2447 target_read_buffer(): reading buffer of 2 byte at 0x240048ec
Debug: 2382 49298 gdb_server.c:391 gdb_log_outgoing_packet(): [stm32h7x.cpu0] sending packet: $0000#c0
Debug: 2383 49404 target.c:2447 target_read_buffer(): reading buffer of 24 byte at 0x20000018
Debug: 2384 49512 target.c:2447 target_read_buffer(): reading buffer of 24 byte at 0x20000018
Debug: 2385 49620 target.c:2447 target_read_buffer(): reading buffer of 24 byte at 0x20000018
Debug: 2386 49728 target.c:2447 target_read_buffer(): reading buffer of 24 byte at 0x20000018
Debug: 2387 49834 target.c:2447 target_read_buffer(): reading buffer of 24 byte at 0x20000018
Debug: 2388 49944 target.c:2447 target_read_buffer(): reading buffer of 24 byte at 0x20000018
Debug: 2389 50051 target.c:2447 target_read_buffer(): reading buffer of 24 byte at 0x20000018
Debug: 2390 50159 target.c:2447 target_read_buffer(): reading buffer of 24 byte at 0x20000018
Debug: 2391 50269 target.c:2447 target_read_buffer(): reading buffer of 24 byte at 0x20000018
Debug: 2392 50378 target.c:2447 target_read_buffer(): reading buffer of 24 byte at 0x20000018
Debug: 2393 50485 target.c:2447 target_read_buffer(): reading buffer of 24 byte at 0x20000018
Debug: 2394 50593 target.c:2447 target_read_buffer(): reading buffer of 24 byte at 0x20000018
Debug: 2395 50702 target.c:2447 target_read_buffer(): reading buffer of 24 byte at 0x20000018
Debug: 2396 50811 target.c:2447 target_read_buffer(): reading buffer of 24 byte at 0x20000018
Debug: 2397 50920 target.c:2447 target_read_buffer(): reading buffer of 24 byte at 0x20000018
Debug: 2398 51029 target.c:2447 target_read_buffer(): reading buffer of 24 byte at 0x20000018
Debug: 2399 51138 target.c:2447 target_read_buffer(): reading buffer of 24 byte at 0x20000018
Debug: 2400 51246 target.c:2447 target_read_buffer(): reading buffer of 24 byte at 0x20000018
Debug: 2401 51356 target.c:2447 target_read_buffer(): reading buffer of 24 byte at 0x20000018
Debug: 2402 51464 target.c:2447 target_read_buffer(): reading buffer of 24 byte at 0x20000018
Debug: 2403 51571 target.c:2447 target_read_buffer(): reading buffer of 24 byte at 0x20000018
Debug: 2404 51681 target.c:2447 target_read_buffer(): reading buffer of 24 byte at 0x20000018
Debug: 2405 51791 target.c:2447 target_read_buffer(): reading buffer of 24 byte at 0x20000018
Debug: 2406 51899 target.c:2447 target_read_buffer(): reading buffer of 24 byte at 0x20000018
Debug: 2407 52008 target.c:2447 target_read_buffer(): reading buffer of 24 byte at 0x20000018
Debug: 2408 52114 target.c:2447 target_read_buffer(): reading buffer of 24 byte at 0x20000018
Debug: 2409 52222 target.c:2447 target_read_buffer(): reading buffer of 24 byte at 0x20000018
Debug: 2410 52331 target.c:2447 target_read_buffer(): reading buffer of 24 byte at 0x20000018
Debug: 2411 52440 target.c:2447 target_read_buffer(): reading buffer of 24 byte at 0x20000018
Debug: 2412 52549 target.c:2447 target_read_buffer(): reading buffer of 24 byte at 0x20000018
Debug: 2413 52655 target.c:2447 target_read_buffer(): reading buffer of 24 byte at 0x20000018
Debug: 2414 52764 target.c:2447 target_read_buffer(): reading buffer of 24 byte at 0x20000018
Debug: 2415 52872 target.c:2447 target_read_buffer(): reading buffer of 24 byte at 0x20000018
Debug: 2416 52982 target.c:2447 target_read_buffer(): reading buffer of 24 byte at 0x20000018
Debug: 2417 53091 target.c:2447 target_read_buffer(): reading buffer of 24 byte at 0x20000018
Debug: 2418 53200 target.c:2447 target_read_buffer(): reading buffer of 24 byte at 0x20000018
Debug: 2419 53308 target.c:2447 target_read_buffer(): reading buffer of 24 byte at 0x20000018
Debug: 2420 53415 target.c:2447 target_read_buffer(): reading buffer of 24 byte at 0x20000018
Debug: 2421 53522 target.c:2447 target_read_buffer(): reading buffer of 24 byte at 0x20000018
Debug: 2422 53629 target.c:2447 target_read_buffer(): reading buffer of 24 byte at 0x20000018
Debug: 2423 53736 target.c:2447 target_read_buffer(): reading buffer of 24 byte at 0x20000018
Debug: 2424 53845 target.c:2447 target_read_buffer(): reading buffer of 24 byte at 0x20000018
Debug: 2425 53953 target.c:2447 target_read_buffer(): reading buffer of 24 byte at 0x20000018
Debug: 2426 54063 target.c:2447 target_read_buffer(): reading buffer of 24 byte at 0x20000018
Debug: 2427 54170 target.c:2447 target_read_buffer(): reading buffer of 24 byte at 0x20000018
Debug: 2428 54278 target.c:2447 target_read_buffer(): reading buffer of 24 byte at 0x20000018
Debug: 2429 54387 target.c:2447 target_read_buffer(): reading buffer of 24 byte at 0x20000018
Debug: 2430 54449 gdb_server.c:375 gdb_log_incoming_packet(): [stm32h7x.cpu0] received packet: Z1,80795c2,2
Debug: 2431 54449 gdb_server.c:1750 gdb_breakpoint_watchpoint_packet(): [stm32h7x.cpu0]
Debug: 2432 54449 target.c:2688 target_write_u32(): address: 0xe0002008, value: 0x080795c3
Debug: 2433 54450 cortex_m.c:1994 cortex_m_set_breakpoint(): [stm32h7x.cpu0] fpc_num 0 fpcr_value 0x80795c3
Debug: 2434 54450 cortex_m.c:2030 cortex_m_set_breakpoint(): [stm32h7x.cpu0] BPID: 13, Type: 0, Address: 0x080795c2 Length: 2 (n=0)
Debug: 2435 54450 breakpoints.c:88 breakpoint_add_internal(): [0] added hardware breakpoint at 0x080795c2 of length 0x00000002, (BPID: 13)
Debug: 2436 54450 gdb_server.c:391 gdb_log_outgoing_packet(): [stm32h7x.cpu0] sending packet: $OK#9a
Debug: 2437 54450 gdb_server.c:375 gdb_log_incoming_packet(): [stm32h7x.cpu0] received packet: Z1,809deb2,2
Debug: 2438 54450 gdb_server.c:1750 gdb_breakpoint_watchpoint_packet(): [stm32h7x.cpu0]
Debug: 2439 54450 target.c:2688 target_write_u32(): address: 0xe000200c, value: 0x0809deb3
Debug: 2440 54451 cortex_m.c:1994 cortex_m_set_breakpoint(): [stm32h7x.cpu0] fpc_num 1 fpcr_value 0x809deb3
Debug: 2441 54451 cortex_m.c:2030 cortex_m_set_breakpoint(): [stm32h7x.cpu0] BPID: 14, Type: 0, Address: 0x0809deb2 Length: 2 (n=1)
Debug: 2442 54451 breakpoints.c:88 breakpoint_add_internal(): [0] added hardware breakpoint at 0x0809deb2 of length 0x00000002, (BPID: 14)
Debug: 2443 54451 gdb_server.c:391 gdb_log_outgoing_packet(): [stm32h7x.cpu0] sending packet: $OK#9a
Debug: 2444 54451 gdb_server.c:375 gdb_log_incoming_packet(): [stm32h7x.cpu0] received packet: vCont;s:0;c
Debug: 2445 54451 gdb_server.c:3137 gdb_handle_vcont_packet(): target stm32h7x.cpu0 single-step thread 0
Debug: 2446 54451 target.c:1815 target_call_event_callbacks(): target event 7 (gdb-start) for core stm32h7x.cpu0
Debug: 2447 54451 target.c:1815 target_call_event_callbacks(): target event 5 (step-start) for core stm32h7x.cpu0
Debug: 2448 54451 armv7m.c:174 armv7m_restore_context():  
Debug: 2449 54451 target.c:1815 target_call_event_callbacks(): target event 2 (resumed) for core stm32h7x.cpu0
Debug: 2450 54451 target.c:2688 target_write_u32(): address: 0xe0002010, value: 0x0809da5f
Debug: 2451 54451 cortex_m.c:1994 cortex_m_set_breakpoint(): [stm32h7x.cpu0] fpc_num 2 fpcr_value 0x809da5f
Debug: 2452 54451 cortex_m.c:2030 cortex_m_set_breakpoint(): [stm32h7x.cpu0] BPID: 15, Type: 0, Address: 0x0809da5e Length: 2 (n=2)
Debug: 2453 54451 breakpoints.c:88 breakpoint_add_internal(): [0] added hardware breakpoint at 0x0809da5e of length 0x00000002, (BPID: 15)
Debug: 2454 54451 cortex_m.c:1520 cortex_m_step(): [stm32h7x.cpu0] Starting core to serve pending interrupts
Debug: 2455 54452 cortex_m.c:2051 cortex_m_unset_breakpoint(): [stm32h7x.cpu0] BPID: 15, Type: 0, Address: 0x0809da5e Length: 2 (n=2)
Debug: 2456 54452 target.c:2688 target_write_u32(): address: 0xe0002010, value: 0x00000000
Debug: 2457 54453 breakpoints.c:296 breakpoint_free(): free BPID: 15 --> 0
Debug: 2458 54454 cortex_m.c:1579 cortex_m_step(): [stm32h7x.cpu0] target stepped dcb_dhcsr = 0x1030007 nvic_icsr = 0x0
Debug: 2459 54454 cortex_m.c:803 cortex_m_debug_entry(): [stm32h7x.cpu0]  
Debug: 2460 54455 cortex_m.c:544 cortex_m_clear_halt(): [stm32h7x.cpu0] NVIC_DFSR 0x3
Debug: 2461 54465 cortex_m.c:346 cortex_m_fast_read_all_regs(): [stm32h7x.cpu0] read 53 32-bit registers
Debug: 2462 54465 cortex_m.c:873 cortex_m_debug_entry(): [stm32h7x.cpu0] entered debug state in core mode: Thread at PC 0x809da60, cpu in Non-Secure state, target->state: halted
Debug: 2463 54465 target.c:1815 target_call_event_callbacks(): target event 0 (gdb-halt) for core stm32h7x.cpu0
Debug: 2464 54465 target.c:1815 target_call_event_callbacks(): target event 1 (halted) for core stm32h7x.cpu0
Debug: 2465 54465 target.c:1815 target_call_event_callbacks(): target event 8 (gdb-end) for core stm32h7x.cpu0
Debug: 2466 54465 cortex_m.c:1588 cortex_m_step(): [stm32h7x.cpu0] target stepped dcb_dhcsr = 0x30003 nvic_icsr = 0x0
Debug: 2467 54465 target.c:1815 target_call_event_callbacks(): target event 6 (step-end) for core stm32h7x.cpu0
Debug: 2468 54465 gdb_server.c:148 gdb_last_signal(): [stm32h7x.cpu0] Debug reason is: SINGLESTEP
Debug: 2469 54465 gdb_server.c:391 gdb_log_outgoing_packet(): [stm32h7x.cpu0] sending packet: $T05#b9
Debug: 2470 54466 gdb_server.c:375 gdb_log_incoming_packet(): [stm32h7x.cpu0] received packet: g
Debug: 2471 54466 gdb_server.c:391 gdb_log_outgoing_packet(): [stm32h7x.cpu0] sending packet: $09000000d9b100240900000088720024efbeaddeefbeaddeefbeadde98b20024efbeaddeefbeaddeefbeaddeefbeadde7b06002098b20024b7de090860da090800000041#92
Debug: 2472 54466 gdb_server.c:375 gdb_log_incoming_packet(): [stm32h7x.cpu0] received packet: vCont;s:0;c
Debug: 2473 54466 gdb_server.c:3137 gdb_handle_vcont_packet(): target stm32h7x.cpu0 single-step thread 0
Debug: 2474 54466 target.c:1815 target_call_event_callbacks(): target event 7 (gdb-start) for core stm32h7x.cpu0
Debug: 2475 54466 target.c:1815 target_call_event_callbacks(): target event 5 (step-start) for core stm32h7x.cpu0
Debug: 2476 54466 armv7m.c:174 armv7m_restore_context():  
Debug: 2477 54466 target.c:1815 target_call_event_callbacks(): target event 2 (resumed) for core stm32h7x.cpu0
Debug: 2478 54466 target.c:2688 target_write_u32(): address: 0xe0002010, value: 0x0809da61
Debug: 2479 54466 cortex_m.c:1994 cortex_m_set_breakpoint(): [stm32h7x.cpu0] fpc_num 2 fpcr_value 0x809da61
Debug: 2480 54467 cortex_m.c:2030 cortex_m_set_breakpoint(): [stm32h7x.cpu0] BPID: 16, Type: 0, Address: 0x0809da60 Length: 2 (n=2)
Debug: 2481 54467 breakpoints.c:88 breakpoint_add_internal(): [0] added hardware breakpoint at 0x0809da60 of length 0x00000002, (BPID: 16)
Debug: 2482 54467 cortex_m.c:1520 cortex_m_step(): [stm32h7x.cpu0] Starting core to serve pending interrupts
Debug: 2483 54467 cortex_m.c:2051 cortex_m_unset_breakpoint(): [stm32h7x.cpu0] BPID: 16, Type: 0, Address: 0x0809da60 Length: 2 (n=2)
Debug: 2484 54467 target.c:2688 target_write_u32(): address: 0xe0002010, value: 0x00000000
Debug: 2485 54468 breakpoints.c:296 breakpoint_free(): free BPID: 16 --> 0
Debug: 2486 54469 cortex_m.c:1579 cortex_m_step(): [stm32h7x.cpu0] target stepped dcb_dhcsr = 0x1030007 nvic_icsr = 0x0
Debug: 2487 54470 cortex_m.c:803 cortex_m_debug_entry(): [stm32h7x.cpu0]  
Debug: 2488 54470 cortex_m.c:544 cortex_m_clear_halt(): [stm32h7x.cpu0] NVIC_DFSR 0x3
Debug: 2489 54480 cortex_m.c:346 cortex_m_fast_read_all_regs(): [stm32h7x.cpu0] read 53 32-bit registers
Debug: 2490 54480 cortex_m.c:873 cortex_m_debug_entry(): [stm32h7x.cpu0] entered debug state in core mode: Thread at PC 0x809da62, cpu in Non-Secure state, target->state: halted
Debug: 2491 54480 target.c:1815 target_call_event_callbacks(): target event 0 (gdb-halt) for core stm32h7x.cpu0
Debug: 2492 54480 target.c:1815 target_call_event_callbacks(): target event 1 (halted) for core stm32h7x.cpu0
Debug: 2493 54480 target.c:1815 target_call_event_callbacks(): target event 8 (gdb-end) for core stm32h7x.cpu0
Debug: 2494 54480 cortex_m.c:1588 cortex_m_step(): [stm32h7x.cpu0] target stepped dcb_dhcsr = 0x30003 nvic_icsr = 0x0
Debug: 2495 54480 target.c:1815 target_call_event_callbacks(): target event 6 (step-end) for core stm32h7x.cpu0
Debug: 2496 54480 gdb_server.c:148 gdb_last_signal(): [stm32h7x.cpu0] Debug reason is: SINGLESTEP
Debug: 2497 54480 gdb_server.c:391 gdb_log_outgoing_packet(): [stm32h7x.cpu0] sending packet: $T05#b9
Debug: 2498 54481 gdb_server.c:375 gdb_log_incoming_packet(): [stm32h7x.cpu0] received packet: g
Debug: 2499 54481 gdb_server.c:391 gdb_log_outgoing_packet(): [stm32h7x.cpu0] sending packet: $09000000d9b100240900000014a00024efbeaddeefbeaddeefbeadde98b20024efbeaddeefbeaddeefbeaddeefbeadde7b06002098b20024b7de090862da090800000041#b1
Debug: 2500 54481 gdb_server.c:375 gdb_log_incoming_packet(): [stm32h7x.cpu0] received packet: vCont;s:0;c
Debug: 2501 54481 gdb_server.c:3137 gdb_handle_vcont_packet(): target stm32h7x.cpu0 single-step thread 0
Debug: 2502 54481 target.c:1815 target_call_event_callbacks(): target event 7 (gdb-start) for core stm32h7x.cpu0
Debug: 2503 54481 target.c:1815 target_call_event_callbacks(): target event 5 (step-start) for core stm32h7x.cpu0
Debug: 2504 54481 armv7m.c:174 armv7m_restore_context():  
Debug: 2505 54481 target.c:1815 target_call_event_callbacks(): target event 2 (resumed) for core stm32h7x.cpu0
Debug: 2506 54481 target.c:2688 target_write_u32(): address: 0xe0002010, value: 0x0809da63
Debug: 2507 54481 cortex_m.c:1994 cortex_m_set_breakpoint(): [stm32h7x.cpu0] fpc_num 2 fpcr_value 0x809da63
Debug: 2508 54481 cortex_m.c:2030 cortex_m_set_breakpoint(): [stm32h7x.cpu0] BPID: 17, Type: 0, Address: 0x0809da62 Length: 2 (n=2)
Debug: 2509 54481 breakpoints.c:88 breakpoint_add_internal(): [0] added hardware breakpoint at 0x0809da62 of length 0x00000002, (BPID: 17)
Debug: 2510 54481 cortex_m.c:1520 cortex_m_step(): [stm32h7x.cpu0] Starting core to serve pending interrupts
Debug: 2511 54482 cortex_m.c:2051 cortex_m_unset_breakpoint(): [stm32h7x.cpu0] BPID: 17, Type: 0, Address: 0x0809da62 Length: 2 (n=2)
Debug: 2512 54482 target.c:2688 target_write_u32(): address: 0xe0002010, value: 0x00000000
Debug: 2513 54482 breakpoints.c:296 breakpoint_free(): free BPID: 17 --> 0
Debug: 2514 54484 cortex_m.c:1579 cortex_m_step(): [stm32h7x.cpu0] target stepped dcb_dhcsr = 0x1030007 nvic_icsr = 0x0
Debug: 2515 54484 cortex_m.c:803 cortex_m_debug_entry(): [stm32h7x.cpu0]  
Debug: 2516 54485 cortex_m.c:544 cortex_m_clear_halt(): [stm32h7x.cpu0] NVIC_DFSR 0x3
Debug: 2517 54495 cortex_m.c:346 cortex_m_fast_read_all_regs(): [stm32h7x.cpu0] read 53 32-bit registers
Debug: 2518 54495 cortex_m.c:873 cortex_m_debug_entry(): [stm32h7x.cpu0] entered debug state in core mode: Thread at PC 0x809da64, cpu in Non-Secure state, target->state: halted
Debug: 2519 54495 target.c:1815 target_call_event_callbacks(): target event 0 (gdb-halt) for core stm32h7x.cpu0
Debug: 2520 54495 target.c:1815 target_call_event_callbacks(): target event 1 (halted) for core stm32h7x.cpu0
Debug: 2521 54495 target.c:1815 target_call_event_callbacks(): target event 8 (gdb-end) for core stm32h7x.cpu0
Debug: 2522 54495 cortex_m.c:1588 cortex_m_step(): [stm32h7x.cpu0] target stepped dcb_dhcsr = 0x30003 nvic_icsr = 0x0
Debug: 2523 54495 target.c:1815 target_call_event_callbacks(): target event 6 (step-end) for core stm32h7x.cpu0
Debug: 2524 54495 gdb_server.c:148 gdb_last_signal(): [stm32h7x.cpu0] Debug reason is: SINGLESTEP
Debug: 2525 54495 gdb_server.c:391 gdb_log_outgoing_packet(): [stm32h7x.cpu0] sending packet: $T05#b9
Debug: 2526 54496 target.c:2447 target_read_buffer(): reading buffer of 24 byte at 0x20000018
Debug: 2527 54496 gdb_server.c:375 gdb_log_incoming_packet(): [stm32h7x.cpu0] received packet: g
Debug: 2528 54496 gdb_server.c:391 gdb_log_outgoing_packet(): [stm32h7x.cpu0] sending packet: $09000000d9b100240900000014a00024efbeaddeefbeaddeefbeadde98b20024efbeaddeefbeaddeefbeaddeefbeadde7b06002098b20024b7de090864da090800000021#b1
Debug: 2529 54497 gdb_server.c:375 gdb_log_incoming_packet(): [stm32h7x.cpu0] received packet: vCont;s:0;c
Debug: 2530 54497 gdb_server.c:3137 gdb_handle_vcont_packet(): target stm32h7x.cpu0 single-step thread 0
Debug: 2531 54497 target.c:1815 target_call_event_callbacks(): target event 7 (gdb-start) for core stm32h7x.cpu0
Debug: 2532 54497 target.c:1815 target_call_event_callbacks(): target event 5 (step-start) for core stm32h7x.cpu0
Debug: 2533 54497 armv7m.c:174 armv7m_restore_context():  
Debug: 2534 54497 target.c:1815 target_call_event_callbacks(): target event 2 (resumed) for core stm32h7x.cpu0
Debug: 2535 54497 target.c:2688 target_write_u32(): address: 0xe0002010, value: 0x0809da65
Debug: 2536 54498 cortex_m.c:1994 cortex_m_set_breakpoint(): [stm32h7x.cpu0] fpc_num 2 fpcr_value 0x809da65
Debug: 2537 54498 cortex_m.c:2030 cortex_m_set_breakpoint(): [stm32h7x.cpu0] BPID: 18, Type: 0, Address: 0x0809da64 Length: 2 (n=2)
Debug: 2538 54498 breakpoints.c:88 breakpoint_add_internal(): [0] added hardware breakpoint at 0x0809da64 of length 0x00000002, (BPID: 18)
Debug: 2539 54498 cortex_m.c:1520 cortex_m_step(): [stm32h7x.cpu0] Starting core to serve pending interrupts
Debug: 2540 54498 cortex_m.c:2051 cortex_m_unset_breakpoint(): [stm32h7x.cpu0] BPID: 18, Type: 0, Address: 0x0809da64 Length: 2 (n=2)
Debug: 2541 54498 target.c:2688 target_write_u32(): address: 0xe0002010, value: 0x00000000
Debug: 2542 54499 breakpoints.c:296 breakpoint_free(): free BPID: 18 --> 0
Debug: 2543 54501 cortex_m.c:1579 cortex_m_step(): [stm32h7x.cpu0] target stepped dcb_dhcsr = 0x1030007 nvic_icsr = 0x0
Debug: 2544 54501 cortex_m.c:803 cortex_m_debug_entry(): [stm32h7x.cpu0]  
Debug: 2545 54502 cortex_m.c:544 cortex_m_clear_halt(): [stm32h7x.cpu0] NVIC_DFSR 0x3
Debug: 2546 54512 cortex_m.c:346 cortex_m_fast_read_all_regs(): [stm32h7x.cpu0] read 53 32-bit registers
Debug: 2547 54512 cortex_m.c:873 cortex_m_debug_entry(): [stm32h7x.cpu0] entered debug state in core mode: Thread at PC 0x809da70, cpu in Non-Secure state, target->state: halted
Debug: 2548 54513 target.c:1815 target_call_event_callbacks(): target event 0 (gdb-halt) for core stm32h7x.cpu0
Debug: 2549 54513 target.c:1815 target_call_event_callbacks(): target event 1 (halted) for core stm32h7x.cpu0
Debug: 2550 54513 target.c:1815 target_call_event_callbacks(): target event 8 (gdb-end) for core stm32h7x.cpu0
Debug: 2551 54513 cortex_m.c:1588 cortex_m_step(): [stm32h7x.cpu0] target stepped dcb_dhcsr = 0x30003 nvic_icsr = 0x0
Debug: 2552 54513 target.c:1815 target_call_event_callbacks(): target event 6 (step-end) for core stm32h7x.cpu0
Debug: 2553 54513 gdb_server.c:148 gdb_last_signal(): [stm32h7x.cpu0] Debug reason is: SINGLESTEP
Debug: 2554 54513 gdb_server.c:391 gdb_log_outgoing_packet(): [stm32h7x.cpu0] sending packet: $T05#b9
Debug: 2555 54514 gdb_server.c:375 gdb_log_incoming_packet(): [stm32h7x.cpu0] received packet: g
Debug: 2556 54515 gdb_server.c:391 gdb_log_outgoing_packet(): [stm32h7x.cpu0] sending packet: $09000000d9b100240900000014a00024efbeaddeefbeaddeefbeadde98b20024efbeaddeefbeaddeefbeaddeefbeadde7b06002098b20024b7de090870da090800000021#ae
Debug: 2557 54516 gdb_server.c:375 gdb_log_incoming_packet(): [stm32h7x.cpu0] received packet: m809da70,4
Debug: 2558 54516 gdb_server.c:1521 gdb_read_memory_packet(): addr: 0x000000000809da70, len: 0x00000004
Debug: 2559 54516 target.c:2447 target_read_buffer(): reading buffer of 4 byte at 0x0809da70
Debug: 2560 54516 gdb_server.c:391 gdb_log_outgoing_packet(): [stm32h7x.cpu0] sending packet: $194b1b68#01
Debug: 2561 54517 gdb_server.c:375 gdb_log_incoming_packet(): [stm32h7x.cpu0] received packet: m2400b280,40
Debug: 2562 54517 gdb_server.c:1521 gdb_read_memory_packet(): addr: 0x000000002400b280, len: 0x00000040
Debug: 2563 54517 target.c:2447 target_read_buffer(): reading buffer of 64 byte at 0x2400b280
Debug: 2564 54519 gdb_server.c:391 gdb_log_outgoing_packet(): [stm32h7x.cpu0] sending packet: $0900000014a000247b060020b7de090864da0908000000217b060000b7de0908a8b20024b7de0908efbeadde0000000000000000000000000000000000000000#74
Debug: 2565 54520 gdb_server.c:375 gdb_log_incoming_packet(): [stm32h7x.cpu0] received packet: qXfer:threads:read::0,1000
Debug: 2566 54520 gdb_server.c:388 gdb_log_outgoing_packet(): [stm32h7x.cpu0] sending packet: $<binary-data-44-bytes>#02
Debug: 2567 54521 gdb_server.c:375 gdb_log_incoming_packet(): [stm32h7x.cpu0] received packet: z1,80795c2,2
Debug: 2568 54521 gdb_server.c:1750 gdb_breakpoint_watchpoint_packet(): [stm32h7x.cpu0]
Debug: 2569 54521 cortex_m.c:2051 cortex_m_unset_breakpoint(): [stm32h7x.cpu0] BPID: 13, Type: 0, Address: 0x080795c2 Length: 2 (n=0)
Debug: 2570 54521 target.c:2688 target_write_u32(): address: 0xe0002008, value: 0x00000000
Debug: 2571 54522 breakpoints.c:296 breakpoint_free(): free BPID: 13 --> 0
Debug: 2572 54522 gdb_server.c:391 gdb_log_outgoing_packet(): [stm32h7x.cpu0] sending packet: $OK#9a
Debug: 2573 54523 gdb_server.c:375 gdb_log_incoming_packet(): [stm32h7x.cpu0] received packet: z1,809deb2,2
Debug: 2574 54523 gdb_server.c:1750 gdb_breakpoint_watchpoint_packet(): [stm32h7x.cpu0]
Debug: 2575 54523 cortex_m.c:2051 cortex_m_unset_breakpoint(): [stm32h7x.cpu0] BPID: 14, Type: 0, Address: 0x0809deb2 Length: 2 (n=1)
Debug: 2576 54523 target.c:2688 target_write_u32(): address: 0xe000200c, value: 0x00000000
Debug: 2577 54523 breakpoints.c:296 breakpoint_free(): free BPID: 14 --> 0
Debug: 2578 54523 gdb_server.c:391 gdb_log_outgoing_packet(): [stm32h7x.cpu0] sending packet: $OK#9a
Debug: 2579 54524 gdb_server.c:375 gdb_log_incoming_packet(): [stm32h7x.cpu0] received packet: m809da70,4
Debug: 2580 54524 gdb_server.c:1521 gdb_read_memory_packet(): addr: 0x000000000809da70, len: 0x00000004
Debug: 2581 54525 target.c:2447 target_read_buffer(): reading buffer of 4 byte at 0x0809da70
Debug: 2582 54526 gdb_server.c:391 gdb_log_outgoing_packet(): [stm32h7x.cpu0] sending packet: $194b1b68#01
Debug: 2583 54543 gdb_server.c:375 gdb_log_incoming_packet(): [stm32h7x.cpu0] received packet: m809deb6,4
Debug: 2584 54543 gdb_server.c:1521 gdb_read_memory_packet(): addr: 0x000000000809deb6, len: 0x00000004
Debug: 2585 54543 target.c:2447 target_read_buffer(): reading buffer of 4 byte at 0x0809deb6
Debug: 2586 54544 gdb_server.c:391 gdb_log_outgoing_packet(): [stm32h7x.cpu0] sending packet: $f860fb68#3a
Debug: 2587 54545 gdb_server.c:375 gdb_log_incoming_packet(): [stm32h7x.cpu0] received packet: m2400b2c0,40
Debug: 2588 54545 gdb_server.c:1521 gdb_read_memory_packet(): addr: 0x000000002400b2c0, len: 0x00000040
Debug: 2589 54545 target.c:2447 target_read_buffer(): reading buffer of 64 byte at 0x2400b2c0
Debug: 2590 54546 gdb_server.c:391 gdb_log_outgoing_packet(): [stm32h7x.cpu0] sending packet: $00000000dd600a08efbeaddedd600a0823232323797d002450350000102500006473656d0000000000000000000000000201000028a00024a40e0024fcb20024#18
Debug: 2591 54547 gdb_server.c:375 gdb_log_incoming_packet(): [stm32h7x.cpu0] received packet: m80a60dc,4
Debug: 2592 54547 gdb_server.c:1521 gdb_read_memory_packet(): addr: 0x00000000080a60dc, len: 0x00000004
Debug: 2593 54547 target.c:2447 target_read_buffer(): reading buffer of 4 byte at 0x080a60dc
Debug: 2594 54548 gdb_server.c:391 gdb_log_outgoing_packet(): [stm32h7x.cpu0] sending packet: $90b583b0#fd
Debug: 2595 54549 gdb_server.c:375 gdb_log_incoming_packet(): [stm32h7x.cpu0] received packet: m80a60dc,4
Debug: 2596 54550 gdb_server.c:1521 gdb_read_memory_packet(): addr: 0x00000000080a60dc, len: 0x00000004
Debug: 2597 54550 target.c:2447 target_read_buffer(): reading buffer of 4 byte at 0x080a60dc
Debug: 2598 54550 gdb_server.c:391 gdb_log_outgoing_packet(): [stm32h7x.cpu0] sending packet: $90b583b0#fd
Debug: 2599 54606 target.c:2447 target_read_buffer(): reading buffer of 24 byte at 0x20000018
Debug: 2600 54715 target.c:2447 target_read_buffer(): reading buffer of 24 byte at 0x20000018
Debug: 2601 54822 target.c:2447 target_read_buffer(): reading buffer of 24 byte at 0x20000018
Debug: 2602 54932 target.c:2447 target_read_buffer(): reading buffer of 24 byte at 0x20000018
Debug: 2603 55027 gdb_server.c:375 gdb_log_incoming_packet(): [stm32h7x.cpu0] received packet: m240048e8,4
Debug: 2604 55027 gdb_server.c:1521 gdb_read_memory_packet(): addr: 0x00000000240048e8, len: 0x00000004
Debug: 2605 55027 target.c:2447 target_read_buffer(): reading buffer of 4 byte at 0x240048e8
Debug: 2606 55027 gdb_server.c:391 gdb_log_outgoing_packet(): [stm32h7x.cpu0] sending packet: $00000000#80
Debug: 2607 55038 target.c:2447 target_read_buffer(): reading buffer of 24 byte at 0x20000018
Debug: 2608 55054 gdb_server.c:375 gdb_log_incoming_packet(): [stm32h7x.cpu0] received packet: m240048ee,2
Debug: 2609 55054 gdb_server.c:1521 gdb_read_memory_packet(): addr: 0x00000000240048ee, len: 0x00000002
Debug: 2610 55054 target.c:2447 target_read_buffer(): reading buffer of 2 byte at 0x240048ee
Debug: 2611 55055 gdb_server.c:391 gdb_log_outgoing_packet(): [stm32h7x.cpu0] sending packet: $0000#c0
Debug: 2612 55070 gdb_server.c:375 gdb_log_incoming_packet(): [stm32h7x.cpu0] received packet: m240048f0,2
Debug: 2613 55070 gdb_server.c:1521 gdb_read_memory_packet(): addr: 0x00000000240048f0, len: 0x00000002
Debug: 2614 55070 target.c:2447 target_read_buffer(): reading buffer of 2 byte at 0x240048f0
Debug: 2615 55070 gdb_server.c:391 gdb_log_outgoing_packet(): [stm32h7x.cpu0] sending packet: $0000#c0
Debug: 2616 55075 gdb_server.c:375 gdb_log_incoming_packet(): [stm32h7x.cpu0] received packet: m240048f2,2
Debug: 2617 55076 gdb_server.c:1521 gdb_read_memory_packet(): addr: 0x00000000240048f2, len: 0x00000002
Debug: 2618 55076 target.c:2447 target_read_buffer(): reading buffer of 2 byte at 0x240048f2
Debug: 2619 55076 gdb_server.c:391 gdb_log_outgoing_packet(): [stm32h7x.cpu0] sending packet: $0000#c0
Debug: 2620 55102 gdb_server.c:375 gdb_log_incoming_packet(): [stm32h7x.cpu0] received packet: m240048f4,2
Debug: 2621 55102 gdb_server.c:1521 gdb_read_memory_packet(): addr: 0x00000000240048f4, len: 0x00000002
Debug: 2622 55102 target.c:2447 target_read_buffer(): reading buffer of 2 byte at 0x240048f4
Debug: 2623 55102 gdb_server.c:391 gdb_log_outgoing_packet(): [stm32h7x.cpu0] sending packet: $0000#c0
Debug: 2624 55118 gdb_server.c:375 gdb_log_incoming_packet(): [stm32h7x.cpu0] received packet: m240048f6,2
Debug: 2625 55118 gdb_server.c:1521 gdb_read_memory_packet(): addr: 0x00000000240048f6, len: 0x00000002
Debug: 2626 55118 target.c:2447 target_read_buffer(): reading buffer of 2 byte at 0x240048f6
Debug: 2627 55119 gdb_server.c:391 gdb_log_outgoing_packet(): [stm32h7x.cpu0] sending packet: $0000#c0
Debug: 2628 55133 gdb_server.c:375 gdb_log_incoming_packet(): [stm32h7x.cpu0] received packet: m240048f8,2
Debug: 2629 55133 gdb_server.c:1521 gdb_read_memory_packet(): addr: 0x00000000240048f8, len: 0x00000002
Debug: 2630 55133 target.c:2447 target_read_buffer(): reading buffer of 2 byte at 0x240048f8
Debug: 2631 55133 gdb_server.c:391 gdb_log_outgoing_packet(): [stm32h7x.cpu0] sending packet: $0000#c0
Debug: 2632 55147 target.c:2447 target_read_buffer(): reading buffer of 24 byte at 0x20000018
Debug: 2633 55148 gdb_server.c:375 gdb_log_incoming_packet(): [stm32h7x.cpu0] received packet: m240048ec,2
Debug: 2634 55148 gdb_server.c:1521 gdb_read_memory_packet(): addr: 0x00000000240048ec, len: 0x00000002
Debug: 2635 55148 target.c:2447 target_read_buffer(): reading buffer of 2 byte at 0x240048ec
Debug: 2636 55149 gdb_server.c:391 gdb_log_outgoing_packet(): [stm32h7x.cpu0] sending packet: $0000#c0
Debug: 2637 55253 target.c:2447 target_read_buffer(): reading buffer of 24 byte at 0x20000018
Debug: 2638 55362 target.c:2447 target_read_buffer(): reading buffer of 24 byte at 0x20000018
Debug: 2639 55471 target.c:2447 target_read_buffer(): reading buffer of 24 byte at 0x20000018
Debug: 2640 55579 target.c:2447 target_read_buffer(): reading buffer of 24 byte at 0x20000018
Debug: 2641 55641 gdb_server.c:375 gdb_log_incoming_packet(): [stm32h7x.cpu0] received packet: Z1,80795c2,2
Debug: 2642 55641 gdb_server.c:1750 gdb_breakpoint_watchpoint_packet(): [stm32h7x.cpu0]
Debug: 2643 55641 target.c:2688 target_write_u32(): address: 0xe0002008, value: 0x080795c3
Debug: 2644 55642 cortex_m.c:1994 cortex_m_set_breakpoint(): [stm32h7x.cpu0] fpc_num 0 fpcr_value 0x80795c3
Debug: 2645 55642 cortex_m.c:2030 cortex_m_set_breakpoint(): [stm32h7x.cpu0] BPID: 19, Type: 0, Address: 0x080795c2 Length: 2 (n=0)
Debug: 2646 55642 breakpoints.c:88 breakpoint_add_internal(): [0] added hardware breakpoint at 0x080795c2 of length 0x00000002, (BPID: 19)
Debug: 2647 55642 gdb_server.c:391 gdb_log_outgoing_packet(): [stm32h7x.cpu0] sending packet: $OK#9a
Debug: 2648 55643 gdb_server.c:375 gdb_log_incoming_packet(): [stm32h7x.cpu0] received packet: Z1,809deb2,2
Debug: 2649 55643 gdb_server.c:1750 gdb_breakpoint_watchpoint_packet(): [stm32h7x.cpu0]
Debug: 2650 55643 target.c:2688 target_write_u32(): address: 0xe000200c, value: 0x0809deb3
Debug: 2651 55643 cortex_m.c:1994 cortex_m_set_breakpoint(): [stm32h7x.cpu0] fpc_num 1 fpcr_value 0x809deb3
Debug: 2652 55643 cortex_m.c:2030 cortex_m_set_breakpoint(): [stm32h7x.cpu0] BPID: 20, Type: 0, Address: 0x0809deb2 Length: 2 (n=1)
Debug: 2653 55643 breakpoints.c:88 breakpoint_add_internal(): [0] added hardware breakpoint at 0x0809deb2 of length 0x00000002, (BPID: 20)
Debug: 2654 55643 gdb_server.c:391 gdb_log_outgoing_packet(): [stm32h7x.cpu0] sending packet: $OK#9a
Debug: 2655 55643 gdb_server.c:375 gdb_log_incoming_packet(): [stm32h7x.cpu0] received packet: vCont;s:0;c
Debug: 2656 55643 gdb_server.c:3137 gdb_handle_vcont_packet(): target stm32h7x.cpu0 single-step thread 0
Debug: 2657 55643 target.c:1815 target_call_event_callbacks(): target event 7 (gdb-start) for core stm32h7x.cpu0
Debug: 2658 55643 target.c:1815 target_call_event_callbacks(): target event 5 (step-start) for core stm32h7x.cpu0
Debug: 2659 55643 armv7m.c:174 armv7m_restore_context():  
Debug: 2660 55643 target.c:1815 target_call_event_callbacks(): target event 2 (resumed) for core stm32h7x.cpu0
Debug: 2661 55643 target.c:2688 target_write_u32(): address: 0xe0002010, value: 0x0809da71
Debug: 2662 55644 cortex_m.c:1994 cortex_m_set_breakpoint(): [stm32h7x.cpu0] fpc_num 2 fpcr_value 0x809da71
Debug: 2663 55644 cortex_m.c:2030 cortex_m_set_breakpoint(): [stm32h7x.cpu0] BPID: 21, Type: 0, Address: 0x0809da70 Length: 2 (n=2)
Debug: 2664 55644 breakpoints.c:88 breakpoint_add_internal(): [0] added hardware breakpoint at 0x0809da70 of length 0x00000002, (BPID: 21)
Debug: 2665 55644 cortex_m.c:1520 cortex_m_step(): [stm32h7x.cpu0] Starting core to serve pending interrupts
Debug: 2666 55644 cortex_m.c:2051 cortex_m_unset_breakpoint(): [stm32h7x.cpu0] BPID: 21, Type: 0, Address: 0x0809da70 Length: 2 (n=2)
Debug: 2667 55644 target.c:2688 target_write_u32(): address: 0xe0002010, value: 0x00000000
Debug: 2668 55644 breakpoints.c:296 breakpoint_free(): free BPID: 21 --> 0
Debug: 2669 55646 cortex_m.c:1579 cortex_m_step(): [stm32h7x.cpu0] target stepped dcb_dhcsr = 0x1030007 nvic_icsr = 0x0
Debug: 2670 55646 cortex_m.c:803 cortex_m_debug_entry(): [stm32h7x.cpu0]  
Debug: 2671 55647 cortex_m.c:544 cortex_m_clear_halt(): [stm32h7x.cpu0] NVIC_DFSR 0x3
Debug: 2672 55657 cortex_m.c:346 cortex_m_fast_read_all_regs(): [stm32h7x.cpu0] read 53 32-bit registers
Debug: 2673 55657 cortex_m.c:873 cortex_m_debug_entry(): [stm32h7x.cpu0] entered debug state in core mode: Thread at PC 0x809da72, cpu in Non-Secure state, target->state: halted
Debug: 2674 55657 target.c:1815 target_call_event_callbacks(): target event 0 (gdb-halt) for core stm32h7x.cpu0
Debug: 2675 55657 target.c:1815 target_call_event_callbacks(): target event 1 (halted) for core stm32h7x.cpu0
Debug: 2676 55657 target.c:1815 target_call_event_callbacks(): target event 8 (gdb-end) for core stm32h7x.cpu0
Debug: 2677 55657 cortex_m.c:1588 cortex_m_step(): [stm32h7x.cpu0] target stepped dcb_dhcsr = 0x30003 nvic_icsr = 0x0
Debug: 2678 55657 target.c:1815 target_call_event_callbacks(): target event 6 (step-end) for core stm32h7x.cpu0
Debug: 2679 55658 gdb_server.c:148 gdb_last_signal(): [stm32h7x.cpu0] Debug reason is: SINGLESTEP
Debug: 2680 55658 gdb_server.c:391 gdb_log_outgoing_packet(): [stm32h7x.cpu0] sending packet: $T05#b9
Debug: 2681 55658 gdb_server.c:375 gdb_log_incoming_packet(): [stm32h7x.cpu0] received packet: g
Debug: 2682 55658 gdb_server.c:391 gdb_log_outgoing_packet(): [stm32h7x.cpu0] sending packet: $09000000d9b100240900000088720024efbeaddeefbeaddeefbeadde98b20024efbeaddeefbeaddeefbeaddeefbeadde7b06002098b20024b7de090872da090800000021#93
Debug: 2683 55659 gdb_server.c:375 gdb_log_incoming_packet(): [stm32h7x.cpu0] received packet: vCont;s:0;c
Debug: 2684 55659 gdb_server.c:3137 gdb_handle_vcont_packet(): target stm32h7x.cpu0 single-step thread 0
Debug: 2685 55659 target.c:1815 target_call_event_callbacks(): target event 7 (gdb-start) for core stm32h7x.cpu0
Debug: 2686 55659 target.c:1815 target_call_event_callbacks(): target event 5 (step-start) for core stm32h7x.cpu0
Debug: 2687 55659 armv7m.c:174 armv7m_restore_context():  
Debug: 2688 55659 target.c:1815 target_call_event_callbacks(): target event 2 (resumed) for core stm32h7x.cpu0
Debug: 2689 55659 target.c:2688 target_write_u32(): address: 0xe0002010, value: 0x0809da73
Debug: 2690 55659 cortex_m.c:1994 cortex_m_set_breakpoint(): [stm32h7x.cpu0] fpc_num 2 fpcr_value 0x809da73
Debug: 2691 55659 cortex_m.c:2030 cortex_m_set_breakpoint(): [stm32h7x.cpu0] BPID: 22, Type: 0, Address: 0x0809da72 Length: 2 (n=2)
Debug: 2692 55659 breakpoints.c:88 breakpoint_add_internal(): [0] added hardware breakpoint at 0x0809da72 of length 0x00000002, (BPID: 22)
Debug: 2693 55659 cortex_m.c:1520 cortex_m_step(): [stm32h7x.cpu0] Starting core to serve pending interrupts
Debug: 2694 55660 cortex_m.c:2051 cortex_m_unset_breakpoint(): [stm32h7x.cpu0] BPID: 22, Type: 0, Address: 0x0809da72 Length: 2 (n=2)
Debug: 2695 55660 target.c:2688 target_write_u32(): address: 0xe0002010, value: 0x00000000
Debug: 2696 55661 breakpoints.c:296 breakpoint_free(): free BPID: 22 --> 0
Debug: 2697 55663 cortex_m.c:1579 cortex_m_step(): [stm32h7x.cpu0] target stepped dcb_dhcsr = 0x1030007 nvic_icsr = 0x0
Debug: 2698 55663 cortex_m.c:803 cortex_m_debug_entry(): [stm32h7x.cpu0]  
Debug: 2699 55664 cortex_m.c:544 cortex_m_clear_halt(): [stm32h7x.cpu0] NVIC_DFSR 0x3
Debug: 2700 55674 cortex_m.c:346 cortex_m_fast_read_all_regs(): [stm32h7x.cpu0] read 53 32-bit registers
Debug: 2701 55674 cortex_m.c:873 cortex_m_debug_entry(): [stm32h7x.cpu0] entered debug state in core mode: Thread at PC 0x809da74, cpu in Non-Secure state, target->state: halted
Debug: 2702 55674 target.c:1815 target_call_event_callbacks(): target event 0 (gdb-halt) for core stm32h7x.cpu0
Debug: 2703 55675 target.c:1815 target_call_event_callbacks(): target event 1 (halted) for core stm32h7x.cpu0
Debug: 2704 55675 target.c:1815 target_call_event_callbacks(): target event 8 (gdb-end) for core stm32h7x.cpu0
Debug: 2705 55675 cortex_m.c:1588 cortex_m_step(): [stm32h7x.cpu0] target stepped dcb_dhcsr = 0x30003 nvic_icsr = 0x0
Debug: 2706 55675 target.c:1815 target_call_event_callbacks(): target event 6 (step-end) for core stm32h7x.cpu0
Debug: 2707 55675 gdb_server.c:148 gdb_last_signal(): [stm32h7x.cpu0] Debug reason is: SINGLESTEP
Debug: 2708 55675 gdb_server.c:391 gdb_log_outgoing_packet(): [stm32h7x.cpu0] sending packet: $T05#b9
Debug: 2709 55676 gdb_server.c:375 gdb_log_incoming_packet(): [stm32h7x.cpu0] received packet: g
Debug: 2710 55676 gdb_server.c:391 gdb_log_outgoing_packet(): [stm32h7x.cpu0] sending packet: $09000000d9b100240900000014a00024efbeaddeefbeaddeefbeadde98b20024efbeaddeefbeaddeefbeaddeefbeadde7b06002098b20024b7de090874da090800000021#b2
Debug: 2711 55676 gdb_server.c:375 gdb_log_incoming_packet(): [stm32h7x.cpu0] received packet: m809da74,4
Debug: 2712 55676 gdb_server.c:1521 gdb_read_memory_packet(): addr: 0x000000000809da74, len: 0x00000004
Debug: 2713 55676 target.c:2447 target_read_buffer(): reading buffer of 4 byte at 0x0809da74
Debug: 2714 55677 gdb_server.c:391 gdb_log_outgoing_packet(): [stm32h7x.cpu0] sending packet: $d3f81432#ff
Debug: 2715 55678 gdb_server.c:375 gdb_log_incoming_packet(): [stm32h7x.cpu0] received packet: m2400b280,40
Debug: 2716 55678 gdb_server.c:1521 gdb_read_memory_packet(): addr: 0x000000002400b280, len: 0x00000040
Debug: 2717 55678 target.c:2447 target_read_buffer(): reading buffer of 64 byte at 0x2400b280
Debug: 2718 55679 gdb_server.c:391 gdb_log_outgoing_packet(): [stm32h7x.cpu0] sending packet: $09000000887200247b060020b7de090872da0908000000217b060000b7de0908a8b20024b7de0908efbeadde0000000000000000000000000000000000000000#56
Debug: 2719 55679 target.c:2447 target_read_buffer(): reading buffer of 24 byte at 0x20000018
Debug: 2720 55680 gdb_server.c:375 gdb_log_incoming_packet(): [stm32h7x.cpu0] received packet: vCont;s:0;c
Debug: 2721 55680 gdb_server.c:3137 gdb_handle_vcont_packet(): target stm32h7x.cpu0 single-step thread 0
Debug: 2722 55680 target.c:1815 target_call_event_callbacks(): target event 7 (gdb-start) for core stm32h7x.cpu0
Debug: 2723 55680 target.c:1815 target_call_event_callbacks(): target event 5 (step-start) for core stm32h7x.cpu0
Debug: 2724 55680 armv7m.c:174 armv7m_restore_context():  
Debug: 2725 55680 target.c:1815 target_call_event_callbacks(): target event 2 (resumed) for core stm32h7x.cpu0
Debug: 2726 55680 target.c:2688 target_write_u32(): address: 0xe0002010, value: 0x0809da75
Debug: 2727 55680 cortex_m.c:1994 cortex_m_set_breakpoint(): [stm32h7x.cpu0] fpc_num 2 fpcr_value 0x809da75
Debug: 2728 55680 cortex_m.c:2030 cortex_m_set_breakpoint(): [stm32h7x.cpu0] BPID: 23, Type: 0, Address: 0x0809da74 Length: 2 (n=2)
Debug: 2729 55680 breakpoints.c:88 breakpoint_add_internal(): [0] added hardware breakpoint at 0x0809da74 of length 0x00000002, (BPID: 23)
Debug: 2730 55680 cortex_m.c:1520 cortex_m_step(): [stm32h7x.cpu0] Starting core to serve pending interrupts
Debug: 2731 55681 cortex_m.c:2051 cortex_m_unset_breakpoint(): [stm32h7x.cpu0] BPID: 23, Type: 0, Address: 0x0809da74 Length: 2 (n=2)
Debug: 2732 55681 target.c:2688 target_write_u32(): address: 0xe0002010, value: 0x00000000
Debug: 2733 55682 breakpoints.c:296 breakpoint_free(): free BPID: 23 --> 0
Debug: 2734 55684 cortex_m.c:1579 cortex_m_step(): [stm32h7x.cpu0] target stepped dcb_dhcsr = 0x1030007 nvic_icsr = 0x0
Debug: 2735 55684 cortex_m.c:803 cortex_m_debug_entry(): [stm32h7x.cpu0]  
Debug: 2736 55685 cortex_m.c:544 cortex_m_clear_halt(): [stm32h7x.cpu0] NVIC_DFSR 0x3
Debug: 2737 55696 cortex_m.c:346 cortex_m_fast_read_all_regs(): [stm32h7x.cpu0] read 53 32-bit registers
Debug: 2738 55696 cortex_m.c:873 cortex_m_debug_entry(): [stm32h7x.cpu0] entered debug state in core mode: Thread at PC 0x809da78, cpu in Non-Secure state, target->state: halted
Debug: 2739 55696 target.c:1815 target_call_event_callbacks(): target event 0 (gdb-halt) for core stm32h7x.cpu0
Debug: 2740 55697 target.c:1815 target_call_event_callbacks(): target event 1 (halted) for core stm32h7x.cpu0
Debug: 2741 55697 target.c:1815 target_call_event_callbacks(): target event 8 (gdb-end) for core stm32h7x.cpu0
Debug: 2742 55697 cortex_m.c:1588 cortex_m_step(): [stm32h7x.cpu0] target stepped dcb_dhcsr = 0x30003 nvic_icsr = 0x0
Debug: 2743 55697 target.c:1815 target_call_event_callbacks(): target event 6 (step-end) for core stm32h7x.cpu0
Debug: 2744 55697 gdb_server.c:148 gdb_last_signal(): [stm32h7x.cpu0] Debug reason is: SINGLESTEP
Debug: 2745 55697 gdb_server.c:391 gdb_log_outgoing_packet(): [stm32h7x.cpu0] sending packet: $T05#b9
Debug: 2746 55698 gdb_server.c:375 gdb_log_incoming_packet(): [stm32h7x.cpu0] received packet: g
Debug: 2747 55698 gdb_server.c:391 gdb_log_outgoing_packet(): [stm32h7x.cpu0] sending packet: $09000000d9b100240900000000000000efbeaddeefbeaddeefbeadde98b20024efbeaddeefbeaddeefbeaddeefbeadde7b06002098b20024b7de090878da090800000021#7a
Debug: 2748 55698 gdb_server.c:375 gdb_log_incoming_packet(): [stm32h7x.cpu0] received packet: vCont;s:0;c
Debug: 2749 55698 gdb_server.c:3137 gdb_handle_vcont_packet(): target stm32h7x.cpu0 single-step thread 0
Debug: 2750 55698 target.c:1815 target_call_event_callbacks(): target event 7 (gdb-start) for core stm32h7x.cpu0
Debug: 2751 55698 target.c:1815 target_call_event_callbacks(): target event 5 (step-start) for core stm32h7x.cpu0
Debug: 2752 55698 armv7m.c:174 armv7m_restore_context():  
Debug: 2753 55698 target.c:1815 target_call_event_callbacks(): target event 2 (resumed) for core stm32h7x.cpu0
Debug: 2754 55698 target.c:2688 target_write_u32(): address: 0xe0002010, value: 0x0809da79
Debug: 2755 55699 cortex_m.c:1994 cortex_m_set_breakpoint(): [stm32h7x.cpu0] fpc_num 2 fpcr_value 0x809da79
Debug: 2756 55699 cortex_m.c:2030 cortex_m_set_breakpoint(): [stm32h7x.cpu0] BPID: 24, Type: 0, Address: 0x0809da78 Length: 2 (n=2)
Debug: 2757 55699 breakpoints.c:88 breakpoint_add_internal(): [0] added hardware breakpoint at 0x0809da78 of length 0x00000002, (BPID: 24)
Debug: 2758 55699 cortex_m.c:1520 cortex_m_step(): [stm32h7x.cpu0] Starting core to serve pending interrupts
Debug: 2759 55700 cortex_m.c:2051 cortex_m_unset_breakpoint(): [stm32h7x.cpu0] BPID: 24, Type: 0, Address: 0x0809da78 Length: 2 (n=2)
Debug: 2760 55700 target.c:2688 target_write_u32(): address: 0xe0002010, value: 0x00000000
Debug: 2761 55700 breakpoints.c:296 breakpoint_free(): free BPID: 24 --> 0
Debug: 2762 55703 cortex_m.c:1579 cortex_m_step(): [stm32h7x.cpu0] target stepped dcb_dhcsr = 0x1030007 nvic_icsr = 0x0
Debug: 2763 55703 cortex_m.c:803 cortex_m_debug_entry(): [stm32h7x.cpu0]  
Debug: 2764 55704 cortex_m.c:544 cortex_m_clear_halt(): [stm32h7x.cpu0] NVIC_DFSR 0x3
Debug: 2765 55714 cortex_m.c:346 cortex_m_fast_read_all_regs(): [stm32h7x.cpu0] read 53 32-bit registers
Debug: 2766 55714 cortex_m.c:873 cortex_m_debug_entry(): [stm32h7x.cpu0] entered debug state in core mode: Thread at PC 0x809da7a, cpu in Non-Secure state, target->state: halted
Debug: 2767 55714 target.c:1815 target_call_event_callbacks(): target event 0 (gdb-halt) for core stm32h7x.cpu0
Debug: 2768 55714 target.c:1815 target_call_event_callbacks(): target event 1 (halted) for core stm32h7x.cpu0
Debug: 2769 55714 target.c:1815 target_call_event_callbacks(): target event 8 (gdb-end) for core stm32h7x.cpu0
Debug: 2770 55714 cortex_m.c:1588 cortex_m_step(): [stm32h7x.cpu0] target stepped dcb_dhcsr = 0x30003 nvic_icsr = 0x0
Debug: 2771 55715 target.c:1815 target_call_event_callbacks(): target event 6 (step-end) for core stm32h7x.cpu0
Debug: 2772 55715 gdb_server.c:148 gdb_last_signal(): [stm32h7x.cpu0] Debug reason is: SINGLESTEP
Debug: 2773 55715 gdb_server.c:391 gdb_log_outgoing_packet(): [stm32h7x.cpu0] sending packet: $T05#b9
Debug: 2774 55716 gdb_server.c:375 gdb_log_incoming_packet(): [stm32h7x.cpu0] received packet: g
Debug: 2775 55716 gdb_server.c:391 gdb_log_outgoing_packet(): [stm32h7x.cpu0] sending packet: $09000000d9b100240900000000000000efbeaddeefbeaddeefbeadde98b20024efbeaddeefbeaddeefbeaddeefbeadde7b06002098b20024b7de09087ada090800000021#a3
Debug: 2776 55716 gdb_server.c:375 gdb_log_incoming_packet(): [stm32h7x.cpu0] received packet: m809da7a,4
Debug: 2777 55716 gdb_server.c:1521 gdb_read_memory_packet(): addr: 0x000000000809da7a, len: 0x00000004
Debug: 2778 55716 target.c:2447 target_read_buffer(): reading buffer of 4 byte at 0x0809da7a
Debug: 2779 55717 gdb_server.c:391 gdb_log_outgoing_packet(): [stm32h7x.cpu0] sending packet: $7b68002b#fb
Debug: 2780 55717 gdb_server.c:375 gdb_log_incoming_packet(): [stm32h7x.cpu0] received packet: m2400b280,40
Debug: 2781 55717 gdb_server.c:1521 gdb_read_memory_packet(): addr: 0x000000002400b280, len: 0x00000040
Debug: 2782 55717 target.c:2447 target_read_buffer(): reading buffer of 64 byte at 0x2400b280
Debug: 2783 55719 gdb_server.c:391 gdb_log_outgoing_packet(): [stm32h7x.cpu0] sending packet: $09000000000000007b060020b7de090878da0908000000217b06000000000000a8b20024b7de0908efbeadde0000000000000000000000000000000000000000#8a
Debug: 2784 55719 gdb_server.c:375 gdb_log_incoming_packet(): [stm32h7x.cpu0] received packet: qXfer:threads:read::0,1000
Debug: 2785 55719 gdb_server.c:388 gdb_log_outgoing_packet(): [stm32h7x.cpu0] sending packet: $<binary-data-44-bytes>#02
Debug: 2786 55720 gdb_server.c:375 gdb_log_incoming_packet(): [stm32h7x.cpu0] received packet: z1,80795c2,2
Debug: 2787 55720 gdb_server.c:1750 gdb_breakpoint_watchpoint_packet(): [stm32h7x.cpu0]
Debug: 2788 55720 cortex_m.c:2051 cortex_m_unset_breakpoint(): [stm32h7x.cpu0] BPID: 19, Type: 0, Address: 0x080795c2 Length: 2 (n=0)
Debug: 2789 55720 target.c:2688 target_write_u32(): address: 0xe0002008, value: 0x00000000
Debug: 2790 55720 breakpoints.c:296 breakpoint_free(): free BPID: 19 --> 0
Debug: 2791 55721 gdb_server.c:391 gdb_log_outgoing_packet(): [stm32h7x.cpu0] sending packet: $OK#9a
Debug: 2792 55721 gdb_server.c:375 gdb_log_incoming_packet(): [stm32h7x.cpu0] received packet: z1,809deb2,2
Debug: 2793 55722 gdb_server.c:1750 gdb_breakpoint_watchpoint_packet(): [stm32h7x.cpu0]
Debug: 2794 55722 cortex_m.c:2051 cortex_m_unset_breakpoint(): [stm32h7x.cpu0] BPID: 20, Type: 0, Address: 0x0809deb2 Length: 2 (n=1)
Debug: 2795 55722 target.c:2688 target_write_u32(): address: 0xe000200c, value: 0x00000000
Debug: 2796 55722 breakpoints.c:296 breakpoint_free(): free BPID: 20 --> 0
Debug: 2797 55722 gdb_server.c:391 gdb_log_outgoing_packet(): [stm32h7x.cpu0] sending packet: $OK#9a
Debug: 2798 55722 gdb_server.c:375 gdb_log_incoming_packet(): [stm32h7x.cpu0] received packet: m809da7a,4
Debug: 2799 55722 gdb_server.c:1521 gdb_read_memory_packet(): addr: 0x000000000809da7a, len: 0x00000004
Debug: 2800 55722 target.c:2447 target_read_buffer(): reading buffer of 4 byte at 0x0809da7a
Debug: 2801 55723 gdb_server.c:391 gdb_log_outgoing_packet(): [stm32h7x.cpu0] sending packet: $7b68002b#fb
Debug: 2802 55750 gdb_server.c:375 gdb_log_incoming_packet(): [stm32h7x.cpu0] received packet: m809deb6,4
Debug: 2803 55750 gdb_server.c:1521 gdb_read_memory_packet(): addr: 0x000000000809deb6, len: 0x00000004
Debug: 2804 55750 target.c:2447 target_read_buffer(): reading buffer of 4 byte at 0x0809deb6
Debug: 2805 55750 gdb_server.c:391 gdb_log_outgoing_packet(): [stm32h7x.cpu0] sending packet: $f860fb68#3a
Debug: 2806 55751 gdb_server.c:375 gdb_log_incoming_packet(): [stm32h7x.cpu0] received packet: m2400b2c0,40
Debug: 2807 55751 gdb_server.c:1521 gdb_read_memory_packet(): addr: 0x000000002400b2c0, len: 0x00000040
Debug: 2808 55751 target.c:2447 target_read_buffer(): reading buffer of 64 byte at 0x2400b2c0
Debug: 2809 55752 gdb_server.c:391 gdb_log_outgoing_packet(): [stm32h7x.cpu0] sending packet: $00000000dd600a08efbeaddedd600a0823232323797d002450350000102500006473656d0000000000000000000000000201000028a00024a40e0024fcb20024#18
Debug: 2810 55753 gdb_server.c:375 gdb_log_incoming_packet(): [stm32h7x.cpu0] received packet: m80a60dc,4
Debug: 2811 55754 gdb_server.c:1521 gdb_read_memory_packet(): addr: 0x00000000080a60dc, len: 0x00000004
Debug: 2812 55754 target.c:2447 target_read_buffer(): reading buffer of 4 byte at 0x080a60dc
Debug: 2813 55754 gdb_server.c:391 gdb_log_outgoing_packet(): [stm32h7x.cpu0] sending packet: $90b583b0#fd
Debug: 2814 55756 gdb_server.c:375 gdb_log_incoming_packet(): [stm32h7x.cpu0] received packet: m80a60dc,4
Debug: 2815 55756 gdb_server.c:1521 gdb_read_memory_packet(): addr: 0x00000000080a60dc, len: 0x00000004
Debug: 2816 55756 target.c:2447 target_read_buffer(): reading buffer of 4 byte at 0x080a60dc
Debug: 2817 55756 gdb_server.c:391 gdb_log_outgoing_packet(): [stm32h7x.cpu0] sending packet: $90b583b0#fd
Debug: 2818 55792 target.c:2447 target_read_buffer(): reading buffer of 24 byte at 0x20000018
Debug: 2819 55901 target.c:2447 target_read_buffer(): reading buffer of 24 byte at 0x20000018
Debug: 2820 56009 target.c:2447 target_read_buffer(): reading buffer of 24 byte at 0x20000018
Debug: 2821 56041 gdb_server.c:375 gdb_log_incoming_packet(): [stm32h7x.cpu0] received packet: m240048e8,4
Debug: 2822 56041 gdb_server.c:1521 gdb_read_memory_packet(): addr: 0x00000000240048e8, len: 0x00000004
Debug: 2823 56041 target.c:2447 target_read_buffer(): reading buffer of 4 byte at 0x240048e8
Debug: 2824 56041 gdb_server.c:391 gdb_log_outgoing_packet(): [stm32h7x.cpu0] sending packet: $00000000#80
Debug: 2825 56055 gdb_server.c:375 gdb_log_incoming_packet(): [stm32h7x.cpu0] received packet: m240048ee,2
Debug: 2826 56055 gdb_server.c:1521 gdb_read_memory_packet(): addr: 0x00000000240048ee, len: 0x00000002
Debug: 2827 56055 target.c:2447 target_read_buffer(): reading buffer of 2 byte at 0x240048ee
Debug: 2828 56055 gdb_server.c:391 gdb_log_outgoing_packet(): [stm32h7x.cpu0] sending packet: $0000#c0
Debug: 2829 56071 gdb_server.c:375 gdb_log_incoming_packet(): [stm32h7x.cpu0] received packet: m240048f0,2
Debug: 2830 56072 gdb_server.c:1521 gdb_read_memory_packet(): addr: 0x00000000240048f0, len: 0x00000002
Debug: 2831 56072 target.c:2447 target_read_buffer(): reading buffer of 2 byte at 0x240048f0
Debug: 2832 56072 gdb_server.c:391 gdb_log_outgoing_packet(): [stm32h7x.cpu0] sending packet: $0000#c0
Debug: 2833 56087 gdb_server.c:375 gdb_log_incoming_packet(): [stm32h7x.cpu0] received packet: m240048f2,2
Debug: 2834 56087 gdb_server.c:1521 gdb_read_memory_packet(): addr: 0x00000000240048f2, len: 0x00000002
Debug: 2835 56087 target.c:2447 target_read_buffer(): reading buffer of 2 byte at 0x240048f2
Debug: 2836 56088 gdb_server.c:391 gdb_log_outgoing_packet(): [stm32h7x.cpu0] sending packet: $0000#c0
Debug: 2837 56103 gdb_server.c:375 gdb_log_incoming_packet(): [stm32h7x.cpu0] received packet: m240048f4,2
Debug: 2838 56103 gdb_server.c:1521 gdb_read_memory_packet(): addr: 0x00000000240048f4, len: 0x00000002
Debug: 2839 56103 target.c:2447 target_read_buffer(): reading buffer of 2 byte at 0x240048f4
Debug: 2840 56103 gdb_server.c:391 gdb_log_outgoing_packet(): [stm32h7x.cpu0] sending packet: $0000#c0
Debug: 2841 56117 target.c:2447 target_read_buffer(): reading buffer of 24 byte at 0x20000018
Debug: 2842 56118 gdb_server.c:375 gdb_log_incoming_packet(): [stm32h7x.cpu0] received packet: m240048f6,2
Debug: 2843 56118 gdb_server.c:1521 gdb_read_memory_packet(): addr: 0x00000000240048f6, len: 0x00000002
Debug: 2844 56119 target.c:2447 target_read_buffer(): reading buffer of 2 byte at 0x240048f6
Debug: 2845 56119 gdb_server.c:391 gdb_log_outgoing_packet(): [stm32h7x.cpu0] sending packet: $0000#c0
Debug: 2846 56133 gdb_server.c:375 gdb_log_incoming_packet(): [stm32h7x.cpu0] received packet: m240048f8,2
Debug: 2847 56133 gdb_server.c:1521 gdb_read_memory_packet(): addr: 0x00000000240048f8, len: 0x00000002
Debug: 2848 56133 target.c:2447 target_read_buffer(): reading buffer of 2 byte at 0x240048f8
Debug: 2849 56134 gdb_server.c:391 gdb_log_outgoing_packet(): [stm32h7x.cpu0] sending packet: $0000#c0
Debug: 2850 56148 gdb_server.c:375 gdb_log_incoming_packet(): [stm32h7x.cpu0] received packet: m240048ec,2
Debug: 2851 56148 gdb_server.c:1521 gdb_read_memory_packet(): addr: 0x00000000240048ec, len: 0x00000002
Debug: 2852 56148 target.c:2447 target_read_buffer(): reading buffer of 2 byte at 0x240048ec
Debug: 2853 56148 gdb_server.c:391 gdb_log_outgoing_packet(): [stm32h7x.cpu0] sending packet: $0000#c0
Debug: 2854 56225 target.c:2447 target_read_buffer(): reading buffer of 24 byte at 0x20000018
Debug: 2855 56335 target.c:2447 target_read_buffer(): reading buffer of 24 byte at 0x20000018
Debug: 2856 56412 gdb_server.c:375 gdb_log_incoming_packet(): [stm32h7x.cpu0] received packet: Z1,80795c2,2
Debug: 2857 56412 gdb_server.c:1750 gdb_breakpoint_watchpoint_packet(): [stm32h7x.cpu0]
Debug: 2858 56412 target.c:2688 target_write_u32(): address: 0xe0002008, value: 0x080795c3
Debug: 2859 56412 cortex_m.c:1994 cortex_m_set_breakpoint(): [stm32h7x.cpu0] fpc_num 0 fpcr_value 0x80795c3
Debug: 2860 56412 cortex_m.c:2030 cortex_m_set_breakpoint(): [stm32h7x.cpu0] BPID: 25, Type: 0, Address: 0x080795c2 Length: 2 (n=0)
Debug: 2861 56412 breakpoints.c:88 breakpoint_add_internal(): [0] added hardware breakpoint at 0x080795c2 of length 0x00000002, (BPID: 25)
Debug: 2862 56413 gdb_server.c:391 gdb_log_outgoing_packet(): [stm32h7x.cpu0] sending packet: $OK#9a
Debug: 2863 56413 gdb_server.c:375 gdb_log_incoming_packet(): [stm32h7x.cpu0] received packet: Z1,809deb2,2
Debug: 2864 56413 gdb_server.c:1750 gdb_breakpoint_watchpoint_packet(): [stm32h7x.cpu0]
Debug: 2865 56413 target.c:2688 target_write_u32(): address: 0xe000200c, value: 0x0809deb3
Debug: 2866 56413 cortex_m.c:1994 cortex_m_set_breakpoint(): [stm32h7x.cpu0] fpc_num 1 fpcr_value 0x809deb3
Debug: 2867 56413 cortex_m.c:2030 cortex_m_set_breakpoint(): [stm32h7x.cpu0] BPID: 26, Type: 0, Address: 0x0809deb2 Length: 2 (n=1)
Debug: 2868 56413 breakpoints.c:88 breakpoint_add_internal(): [0] added hardware breakpoint at 0x0809deb2 of length 0x00000002, (BPID: 26)
Debug: 2869 56413 gdb_server.c:391 gdb_log_outgoing_packet(): [stm32h7x.cpu0] sending packet: $OK#9a
Debug: 2870 56413 gdb_server.c:375 gdb_log_incoming_packet(): [stm32h7x.cpu0] received packet: vCont;s:0;c
Debug: 2871 56413 gdb_server.c:3137 gdb_handle_vcont_packet(): target stm32h7x.cpu0 single-step thread 0
Debug: 2872 56413 target.c:1815 target_call_event_callbacks(): target event 7 (gdb-start) for core stm32h7x.cpu0
Debug: 2873 56413 target.c:1815 target_call_event_callbacks(): target event 5 (step-start) for core stm32h7x.cpu0
Debug: 2874 56414 armv7m.c:174 armv7m_restore_context():  
Debug: 2875 56414 target.c:1815 target_call_event_callbacks(): target event 2 (resumed) for core stm32h7x.cpu0
Debug: 2876 56414 target.c:2688 target_write_u32(): address: 0xe0002010, value: 0x0809da7b
Debug: 2877 56414 cortex_m.c:1994 cortex_m_set_breakpoint(): [stm32h7x.cpu0] fpc_num 2 fpcr_value 0x809da7b
Debug: 2878 56414 cortex_m.c:2030 cortex_m_set_breakpoint(): [stm32h7x.cpu0] BPID: 27, Type: 0, Address: 0x0809da7a Length: 2 (n=2)
Debug: 2879 56414 breakpoints.c:88 breakpoint_add_internal(): [0] added hardware breakpoint at 0x0809da7a of length 0x00000002, (BPID: 27)
Debug: 2880 56414 cortex_m.c:1520 cortex_m_step(): [stm32h7x.cpu0] Starting core to serve pending interrupts
Debug: 2881 56415 cortex_m.c:2051 cortex_m_unset_breakpoint(): [stm32h7x.cpu0] BPID: 27, Type: 0, Address: 0x0809da7a Length: 2 (n=2)
Debug: 2882 56415 target.c:2688 target_write_u32(): address: 0xe0002010, value: 0x00000000
Debug: 2883 56415 breakpoints.c:296 breakpoint_free(): free BPID: 27 --> 0
Debug: 2884 56417 cortex_m.c:1579 cortex_m_step(): [stm32h7x.cpu0] target stepped dcb_dhcsr = 0x1030007 nvic_icsr = 0x0
Debug: 2885 56417 cortex_m.c:803 cortex_m_debug_entry(): [stm32h7x.cpu0]  
Debug: 2886 56418 cortex_m.c:544 cortex_m_clear_halt(): [stm32h7x.cpu0] NVIC_DFSR 0x3
Debug: 2887 56427 cortex_m.c:346 cortex_m_fast_read_all_regs(): [stm32h7x.cpu0] read 53 32-bit registers
Debug: 2888 56427 cortex_m.c:873 cortex_m_debug_entry(): [stm32h7x.cpu0] entered debug state in core mode: Thread at PC 0x809da7c, cpu in Non-Secure state, target->state: halted
Debug: 2889 56427 target.c:1815 target_call_event_callbacks(): target event 0 (gdb-halt) for core stm32h7x.cpu0
Debug: 2890 56427 target.c:1815 target_call_event_callbacks(): target event 1 (halted) for core stm32h7x.cpu0
Debug: 2891 56427 target.c:1815 target_call_event_callbacks(): target event 8 (gdb-end) for core stm32h7x.cpu0
Debug: 2892 56427 cortex_m.c:1588 cortex_m_step(): [stm32h7x.cpu0] target stepped dcb_dhcsr = 0x30003 nvic_icsr = 0x0
Debug: 2893 56427 target.c:1815 target_call_event_callbacks(): target event 6 (step-end) for core stm32h7x.cpu0
Debug: 2894 56427 gdb_server.c:148 gdb_last_signal(): [stm32h7x.cpu0] Debug reason is: SINGLESTEP
Debug: 2895 56427 gdb_server.c:391 gdb_log_outgoing_packet(): [stm32h7x.cpu0] sending packet: $T05#b9
Debug: 2896 56428 gdb_server.c:375 gdb_log_incoming_packet(): [stm32h7x.cpu0] received packet: g
Debug: 2897 56428 gdb_server.c:391 gdb_log_outgoing_packet(): [stm32h7x.cpu0] sending packet: $09000000d9b100240900000000000000efbeaddeefbeaddeefbeadde98b20024efbeaddeefbeaddeefbeaddeefbeadde7b06002098b20024b7de09087cda090800000021#a5
Debug: 2898 56428 gdb_server.c:375 gdb_log_incoming_packet(): [stm32h7x.cpu0] received packet: vCont;s:0;c
Debug: 2899 56428 gdb_server.c:3137 gdb_handle_vcont_packet(): target stm32h7x.cpu0 single-step thread 0
Debug: 2900 56428 target.c:1815 target_call_event_callbacks(): target event 7 (gdb-start) for core stm32h7x.cpu0
Debug: 2901 56428 target.c:1815 target_call_event_callbacks(): target event 5 (step-start) for core stm32h7x.cpu0
Debug: 2902 56428 armv7m.c:174 armv7m_restore_context():  
Debug: 2903 56428 target.c:1815 target_call_event_callbacks(): target event 2 (resumed) for core stm32h7x.cpu0
Debug: 2904 56428 target.c:2688 target_write_u32(): address: 0xe0002010, value: 0x0809da7d
Debug: 2905 56428 cortex_m.c:1994 cortex_m_set_breakpoint(): [stm32h7x.cpu0] fpc_num 2 fpcr_value 0x809da7d
Debug: 2906 56428 cortex_m.c:2030 cortex_m_set_breakpoint(): [stm32h7x.cpu0] BPID: 28, Type: 0, Address: 0x0809da7c Length: 2 (n=2)
Debug: 2907 56428 breakpoints.c:88 breakpoint_add_internal(): [0] added hardware breakpoint at 0x0809da7c of length 0x00000002, (BPID: 28)
Debug: 2908 56428 cortex_m.c:1520 cortex_m_step(): [stm32h7x.cpu0] Starting core to serve pending interrupts
Debug: 2909 56429 cortex_m.c:2051 cortex_m_unset_breakpoint(): [stm32h7x.cpu0] BPID: 28, Type: 0, Address: 0x0809da7c Length: 2 (n=2)
Debug: 2910 56429 target.c:2688 target_write_u32(): address: 0xe0002010, value: 0x00000000
Debug: 2911 56430 breakpoints.c:296 breakpoint_free(): free BPID: 28 --> 0
Debug: 2912 56432 cortex_m.c:1579 cortex_m_step(): [stm32h7x.cpu0] target stepped dcb_dhcsr = 0x1030007 nvic_icsr = 0x0
Debug: 2913 56432 cortex_m.c:803 cortex_m_debug_entry(): [stm32h7x.cpu0]  
Debug: 2914 56433 cortex_m.c:544 cortex_m_clear_halt(): [stm32h7x.cpu0] NVIC_DFSR 0x3
Debug: 2915 56442 cortex_m.c:346 cortex_m_fast_read_all_regs(): [stm32h7x.cpu0] read 53 32-bit registers
Debug: 2916 56442 cortex_m.c:873 cortex_m_debug_entry(): [stm32h7x.cpu0] entered debug state in core mode: Thread at PC 0x809da7e, cpu in Non-Secure state, target->state: halted
Debug: 2917 56442 target.c:1815 target_call_event_callbacks(): target event 0 (gdb-halt) for core stm32h7x.cpu0
Debug: 2918 56442 target.c:1815 target_call_event_callbacks(): target event 1 (halted) for core stm32h7x.cpu0
Debug: 2919 56442 target.c:1815 target_call_event_callbacks(): target event 8 (gdb-end) for core stm32h7x.cpu0
Debug: 2920 56442 cortex_m.c:1588 cortex_m_step(): [stm32h7x.cpu0] target stepped dcb_dhcsr = 0x30003 nvic_icsr = 0x0
Debug: 2921 56442 target.c:1815 target_call_event_callbacks(): target event 6 (step-end) for core stm32h7x.cpu0
Debug: 2922 56443 gdb_server.c:148 gdb_last_signal(): [stm32h7x.cpu0] Debug reason is: SINGLESTEP
Debug: 2923 56443 gdb_server.c:391 gdb_log_outgoing_packet(): [stm32h7x.cpu0] sending packet: $T05#b9
Debug: 2924 56443 target.c:2447 target_read_buffer(): reading buffer of 24 byte at 0x20000018
Debug: 2925 56444 gdb_server.c:375 gdb_log_incoming_packet(): [stm32h7x.cpu0] received packet: g
Debug: 2926 56444 gdb_server.c:391 gdb_log_outgoing_packet(): [stm32h7x.cpu0] sending packet: $09000000d9b100240900000000000000efbeaddeefbeaddeefbeadde98b20024efbeaddeefbeaddeefbeaddeefbeadde7b06002098b20024b7de09087eda090800000061#ab
Debug: 2927 56445 gdb_server.c:375 gdb_log_incoming_packet(): [stm32h7x.cpu0] received packet: vCont;s:0;c
Debug: 2928 56445 gdb_server.c:3137 gdb_handle_vcont_packet(): target stm32h7x.cpu0 single-step thread 0
Debug: 2929 56445 target.c:1815 target_call_event_callbacks(): target event 7 (gdb-start) for core stm32h7x.cpu0
Debug: 2930 56445 target.c:1815 target_call_event_callbacks(): target event 5 (step-start) for core stm32h7x.cpu0
Debug: 2931 56445 armv7m.c:174 armv7m_restore_context():  
Debug: 2932 56445 target.c:1815 target_call_event_callbacks(): target event 2 (resumed) for core stm32h7x.cpu0
Debug: 2933 56445 target.c:2688 target_write_u32(): address: 0xe0002010, value: 0x0809da7f
Debug: 2934 56445 cortex_m.c:1994 cortex_m_set_breakpoint(): [stm32h7x.cpu0] fpc_num 2 fpcr_value 0x809da7f
Debug: 2935 56445 cortex_m.c:2030 cortex_m_set_breakpoint(): [stm32h7x.cpu0] BPID: 29, Type: 0, Address: 0x0809da7e Length: 2 (n=2)
Debug: 2936 56445 breakpoints.c:88 breakpoint_add_internal(): [0] added hardware breakpoint at 0x0809da7e of length 0x00000002, (BPID: 29)
Debug: 2937 56445 cortex_m.c:1520 cortex_m_step(): [stm32h7x.cpu0] Starting core to serve pending interrupts
Debug: 2938 56446 cortex_m.c:2051 cortex_m_unset_breakpoint(): [stm32h7x.cpu0] BPID: 29, Type: 0, Address: 0x0809da7e Length: 2 (n=2)
Debug: 2939 56446 target.c:2688 target_write_u32(): address: 0xe0002010, value: 0x00000000
Debug: 2940 56447 breakpoints.c:296 breakpoint_free(): free BPID: 29 --> 0
Debug: 2941 56449 cortex_m.c:1579 cortex_m_step(): [stm32h7x.cpu0] target stepped dcb_dhcsr = 0x1030007 nvic_icsr = 0x0
Debug: 2942 56449 cortex_m.c:803 cortex_m_debug_entry(): [stm32h7x.cpu0]  
Debug: 2943 56450 cortex_m.c:544 cortex_m_clear_halt(): [stm32h7x.cpu0] NVIC_DFSR 0x3
Debug: 2944 56460 cortex_m.c:346 cortex_m_fast_read_all_regs(): [stm32h7x.cpu0] read 53 32-bit registers
Debug: 2945 56460 cortex_m.c:873 cortex_m_debug_entry(): [stm32h7x.cpu0] entered debug state in core mode: Thread at PC 0x809da80, cpu in Non-Secure state, target->state: halted
Debug: 2946 56460 target.c:1815 target_call_event_callbacks(): target event 0 (gdb-halt) for core stm32h7x.cpu0
Debug: 2947 56460 target.c:1815 target_call_event_callbacks(): target event 1 (halted) for core stm32h7x.cpu0
Debug: 2948 56460 target.c:1815 target_call_event_callbacks(): target event 8 (gdb-end) for core stm32h7x.cpu0
Debug: 2949 56460 cortex_m.c:1588 cortex_m_step(): [stm32h7x.cpu0] target stepped dcb_dhcsr = 0x30003 nvic_icsr = 0x0
Debug: 2950 56460 target.c:1815 target_call_event_callbacks(): target event 6 (step-end) for core stm32h7x.cpu0
Debug: 2951 56460 gdb_server.c:148 gdb_last_signal(): [stm32h7x.cpu0] Debug reason is: SINGLESTEP
Debug: 2952 56460 gdb_server.c:391 gdb_log_outgoing_packet(): [stm32h7x.cpu0] sending packet: $T05#b9
Debug: 2953 56461 gdb_server.c:375 gdb_log_incoming_packet(): [stm32h7x.cpu0] received packet: g
Debug: 2954 56461 gdb_server.c:391 gdb_log_outgoing_packet(): [stm32h7x.cpu0] sending packet: $09000000d9b100240900000000000000efbeaddeefbeaddeefbeadde98b20024efbeaddeefbeaddeefbeaddeefbeadde7b06002098b20024b7de090880da090800000061#77
Debug: 2955 56462 gdb_server.c:375 gdb_log_incoming_packet(): [stm32h7x.cpu0] received packet: m809da80,4
Debug: 2956 56462 gdb_server.c:1521 gdb_read_memory_packet(): addr: 0x000000000809da80, len: 0x00000004
Debug: 2957 56462 target.c:2447 target_read_buffer(): reading buffer of 4 byte at 0x0809da80
Debug: 2958 56462 gdb_server.c:391 gdb_log_outgoing_packet(): [stm32h7x.cpu0] sending packet: $dbf78cfd#c8
Debug: 2959 56462 gdb_server.c:375 gdb_log_incoming_packet(): [stm32h7x.cpu0] received packet: m2400b280,40
Debug: 2960 56462 gdb_server.c:1521 gdb_read_memory_packet(): addr: 0x000000002400b280, len: 0x00000040
Debug: 2961 56462 target.c:2447 target_read_buffer(): reading buffer of 64 byte at 0x2400b280
Debug: 2962 56463 gdb_server.c:391 gdb_log_outgoing_packet(): [stm32h7x.cpu0] sending packet: $09000000000000007b060020b7de09087eda0908000000617b06000000000000a8b20024b7de0908efbeadde0000000000000000000000000000000000000000#bb
Debug: 2963 56464 gdb_server.c:375 gdb_log_incoming_packet(): [stm32h7x.cpu0] received packet: qXfer:threads:read::0,1000
Debug: 2964 56464 gdb_server.c:388 gdb_log_outgoing_packet(): [stm32h7x.cpu0] sending packet: $<binary-data-44-bytes>#02
Debug: 2965 56465 gdb_server.c:375 gdb_log_incoming_packet(): [stm32h7x.cpu0] received packet: z1,80795c2,2
Debug: 2966 56465 gdb_server.c:1750 gdb_breakpoint_watchpoint_packet(): [stm32h7x.cpu0]
Debug: 2967 56465 cortex_m.c:2051 cortex_m_unset_breakpoint(): [stm32h7x.cpu0] BPID: 25, Type: 0, Address: 0x080795c2 Length: 2 (n=0)
Debug: 2968 56465 target.c:2688 target_write_u32(): address: 0xe0002008, value: 0x00000000
Debug: 2969 56465 breakpoints.c:296 breakpoint_free(): free BPID: 25 --> 0
Debug: 2970 56465 gdb_server.c:391 gdb_log_outgoing_packet(): [stm32h7x.cpu0] sending packet: $OK#9a
Debug: 2971 56466 gdb_server.c:375 gdb_log_incoming_packet(): [stm32h7x.cpu0] received packet: z1,809deb2,2
Debug: 2972 56466 gdb_server.c:1750 gdb_breakpoint_watchpoint_packet(): [stm32h7x.cpu0]
Debug: 2973 56466 cortex_m.c:2051 cortex_m_unset_breakpoint(): [stm32h7x.cpu0] BPID: 26, Type: 0, Address: 0x0809deb2 Length: 2 (n=1)
Debug: 2974 56466 target.c:2688 target_write_u32(): address: 0xe000200c, value: 0x00000000
Debug: 2975 56466 breakpoints.c:296 breakpoint_free(): free BPID: 26 --> 0
Debug: 2976 56466 gdb_server.c:391 gdb_log_outgoing_packet(): [stm32h7x.cpu0] sending packet: $OK#9a
Debug: 2977 56467 gdb_server.c:375 gdb_log_incoming_packet(): [stm32h7x.cpu0] received packet: m809da80,4
Debug: 2978 56467 gdb_server.c:1521 gdb_read_memory_packet(): addr: 0x000000000809da80, len: 0x00000004
Debug: 2979 56467 target.c:2447 target_read_buffer(): reading buffer of 4 byte at 0x0809da80
Debug: 2980 56467 gdb_server.c:391 gdb_log_outgoing_packet(): [stm32h7x.cpu0] sending packet: $dbf78cfd#c8
Debug: 2981 56490 gdb_server.c:375 gdb_log_incoming_packet(): [stm32h7x.cpu0] received packet: m809deb6,4
Debug: 2982 56490 gdb_server.c:1521 gdb_read_memory_packet(): addr: 0x000000000809deb6, len: 0x00000004
Debug: 2983 56490 target.c:2447 target_read_buffer(): reading buffer of 4 byte at 0x0809deb6
Debug: 2984 56491 gdb_server.c:391 gdb_log_outgoing_packet(): [stm32h7x.cpu0] sending packet: $f860fb68#3a
Debug: 2985 56491 gdb_server.c:375 gdb_log_incoming_packet(): [stm32h7x.cpu0] received packet: m2400b2c0,40
Debug: 2986 56491 gdb_server.c:1521 gdb_read_memory_packet(): addr: 0x000000002400b2c0, len: 0x00000040
Debug: 2987 56491 target.c:2447 target_read_buffer(): reading buffer of 64 byte at 0x2400b2c0
Debug: 2988 56492 gdb_server.c:391 gdb_log_outgoing_packet(): [stm32h7x.cpu0] sending packet: $00000000dd600a08efbeaddedd600a0823232323797d002450350000102500006473656d0000000000000000000000000201000028a00024a40e0024fcb20024#18
Debug: 2989 56493 gdb_server.c:375 gdb_log_incoming_packet(): [stm32h7x.cpu0] received packet: m80a60dc,4
Debug: 2990 56493 gdb_server.c:1521 gdb_read_memory_packet(): addr: 0x00000000080a60dc, len: 0x00000004
Debug: 2991 56493 target.c:2447 target_read_buffer(): reading buffer of 4 byte at 0x080a60dc
Debug: 2992 56494 gdb_server.c:391 gdb_log_outgoing_packet(): [stm32h7x.cpu0] sending packet: $90b583b0#fd
Debug: 2993 56494 gdb_server.c:375 gdb_log_incoming_packet(): [stm32h7x.cpu0] received packet: m80a60dc,4
Debug: 2994 56495 gdb_server.c:1521 gdb_read_memory_packet(): addr: 0x00000000080a60dc, len: 0x00000004
Debug: 2995 56495 target.c:2447 target_read_buffer(): reading buffer of 4 byte at 0x080a60dc
Debug: 2996 56495 gdb_server.c:391 gdb_log_outgoing_packet(): [stm32h7x.cpu0] sending packet: $90b583b0#fd
Debug: 2997 56551 target.c:2447 target_read_buffer(): reading buffer of 24 byte at 0x20000018
Debug: 2998 56659 target.c:2447 target_read_buffer(): reading buffer of 24 byte at 0x20000018
Debug: 2999 56754 gdb_server.c:375 gdb_log_incoming_packet(): [stm32h7x.cpu0] received packet: m240048e8,4
Debug: 3000 56754 gdb_server.c:1521 gdb_read_memory_packet(): addr: 0x00000000240048e8, len: 0x00000004
Debug: 3001 56754 target.c:2447 target_read_buffer(): reading buffer of 4 byte at 0x240048e8
Debug: 3002 56755 gdb_server.c:391 gdb_log_outgoing_packet(): [stm32h7x.cpu0] sending packet: $00000000#80
Debug: 3003 56766 target.c:2447 target_read_buffer(): reading buffer of 24 byte at 0x20000018
Debug: 3004 56783 gdb_server.c:375 gdb_log_incoming_packet(): [stm32h7x.cpu0] received packet: m240048ee,2
Debug: 3005 56783 gdb_server.c:1521 gdb_read_memory_packet(): addr: 0x00000000240048ee, len: 0x00000002
Debug: 3006 56783 target.c:2447 target_read_buffer(): reading buffer of 2 byte at 0x240048ee
Debug: 3007 56784 gdb_server.c:391 gdb_log_outgoing_packet(): [stm32h7x.cpu0] sending packet: $0000#c0
Debug: 3008 56798 gdb_server.c:375 gdb_log_incoming_packet(): [stm32h7x.cpu0] received packet: m240048f0,2
Debug: 3009 56798 gdb_server.c:1521 gdb_read_memory_packet(): addr: 0x00000000240048f0, len: 0x00000002
Debug: 3010 56798 target.c:2447 target_read_buffer(): reading buffer of 2 byte at 0x240048f0
Debug: 3011 56799 gdb_server.c:391 gdb_log_outgoing_packet(): [stm32h7x.cpu0] sending packet: $0000#c0
Debug: 3012 56813 gdb_server.c:375 gdb_log_incoming_packet(): [stm32h7x.cpu0] received packet: m240048f2,2
Debug: 3013 56813 gdb_server.c:1521 gdb_read_memory_packet(): addr: 0x00000000240048f2, len: 0x00000002
Debug: 3014 56813 target.c:2447 target_read_buffer(): reading buffer of 2 byte at 0x240048f2
Debug: 3015 56814 gdb_server.c:391 gdb_log_outgoing_packet(): [stm32h7x.cpu0] sending packet: $0000#c0
Debug: 3016 56829 gdb_server.c:375 gdb_log_incoming_packet(): [stm32h7x.cpu0] received packet: m240048f4,2
Debug: 3017 56829 gdb_server.c:1521 gdb_read_memory_packet(): addr: 0x00000000240048f4, len: 0x00000002
Debug: 3018 56829 target.c:2447 target_read_buffer(): reading buffer of 2 byte at 0x240048f4
Debug: 3019 56830 gdb_server.c:391 gdb_log_outgoing_packet(): [stm32h7x.cpu0] sending packet: $0000#c0
Debug: 3020 56834 gdb_server.c:375 gdb_log_incoming_packet(): [stm32h7x.cpu0] received packet: m240048f6,2
Debug: 3021 56834 gdb_server.c:1521 gdb_read_memory_packet(): addr: 0x00000000240048f6, len: 0x00000002
Debug: 3022 56834 target.c:2447 target_read_buffer(): reading buffer of 2 byte at 0x240048f6
Debug: 3023 56835 gdb_server.c:391 gdb_log_outgoing_packet(): [stm32h7x.cpu0] sending packet: $0000#c0
Debug: 3024 56860 gdb_server.c:375 gdb_log_incoming_packet(): [stm32h7x.cpu0] received packet: m240048f8,2
Debug: 3025 56860 gdb_server.c:1521 gdb_read_memory_packet(): addr: 0x00000000240048f8, len: 0x00000002
Debug: 3026 56860 target.c:2447 target_read_buffer(): reading buffer of 2 byte at 0x240048f8
Debug: 3027 56861 gdb_server.c:391 gdb_log_outgoing_packet(): [stm32h7x.cpu0] sending packet: $0000#c0
Debug: 3028 56874 target.c:2447 target_read_buffer(): reading buffer of 24 byte at 0x20000018
Debug: 3029 56876 gdb_server.c:375 gdb_log_incoming_packet(): [stm32h7x.cpu0] received packet: m240048ec,2
Debug: 3030 56876 gdb_server.c:1521 gdb_read_memory_packet(): addr: 0x00000000240048ec, len: 0x00000002
Debug: 3031 56876 target.c:2447 target_read_buffer(): reading buffer of 2 byte at 0x240048ec
Debug: 3032 56876 gdb_server.c:391 gdb_log_outgoing_packet(): [stm32h7x.cpu0] sending packet: $0000#c0
Debug: 3033 56983 target.c:2447 target_read_buffer(): reading buffer of 24 byte at 0x20000018
Debug: 3034 57092 target.c:2447 target_read_buffer(): reading buffer of 24 byte at 0x20000018
Debug: 3035 57200 target.c:2447 target_read_buffer(): reading buffer of 24 byte at 0x20000018
Debug: 3036 57308 target.c:2447 target_read_buffer(): reading buffer of 24 byte at 0x20000018
Debug: 3037 57416 target.c:2447 target_read_buffer(): reading buffer of 24 byte at 0x20000018
Debug: 3038 57523 target.c:2447 target_read_buffer(): reading buffer of 24 byte at 0x20000018
Debug: 3039 57631 target.c:2447 target_read_buffer(): reading buffer of 24 byte at 0x20000018
Debug: 3040 57739 target.c:2447 target_read_buffer(): reading buffer of 24 byte at 0x20000018
Debug: 3041 57832 gdb_server.c:375 gdb_log_incoming_packet(): [stm32h7x.cpu0] received packet: Z1,80795c2,2
Debug: 3042 57832 gdb_server.c:1750 gdb_breakpoint_watchpoint_packet(): [stm32h7x.cpu0]
Debug: 3043 57832 target.c:2688 target_write_u32(): address: 0xe0002008, value: 0x080795c3
Debug: 3044 57833 cortex_m.c:1994 cortex_m_set_breakpoint(): [stm32h7x.cpu0] fpc_num 0 fpcr_value 0x80795c3
Debug: 3045 57833 cortex_m.c:2030 cortex_m_set_breakpoint(): [stm32h7x.cpu0] BPID: 30, Type: 0, Address: 0x080795c2 Length: 2 (n=0)
Debug: 3046 57833 breakpoints.c:88 breakpoint_add_internal(): [0] added hardware breakpoint at 0x080795c2 of length 0x00000002, (BPID: 30)
Debug: 3047 57833 gdb_server.c:391 gdb_log_outgoing_packet(): [stm32h7x.cpu0] sending packet: $OK#9a
Debug: 3048 57833 gdb_server.c:375 gdb_log_incoming_packet(): [stm32h7x.cpu0] received packet: Z1,809deb2,2
Debug: 3049 57833 gdb_server.c:1750 gdb_breakpoint_watchpoint_packet(): [stm32h7x.cpu0]
Debug: 3050 57833 target.c:2688 target_write_u32(): address: 0xe000200c, value: 0x0809deb3
Debug: 3051 57833 cortex_m.c:1994 cortex_m_set_breakpoint(): [stm32h7x.cpu0] fpc_num 1 fpcr_value 0x809deb3
Debug: 3052 57833 cortex_m.c:2030 cortex_m_set_breakpoint(): [stm32h7x.cpu0] BPID: 31, Type: 0, Address: 0x0809deb2 Length: 2 (n=1)
Debug: 3053 57833 breakpoints.c:88 breakpoint_add_internal(): [0] added hardware breakpoint at 0x0809deb2 of length 0x00000002, (BPID: 31)
Debug: 3054 57833 gdb_server.c:391 gdb_log_outgoing_packet(): [stm32h7x.cpu0] sending packet: $OK#9a
Debug: 3055 57834 gdb_server.c:375 gdb_log_incoming_packet(): [stm32h7x.cpu0] received packet: vCont;s:0;c
Debug: 3056 57834 gdb_server.c:3137 gdb_handle_vcont_packet(): target stm32h7x.cpu0 single-step thread 0
Debug: 3057 57834 target.c:1815 target_call_event_callbacks(): target event 7 (gdb-start) for core stm32h7x.cpu0
Debug: 3058 57834 target.c:1815 target_call_event_callbacks(): target event 5 (step-start) for core stm32h7x.cpu0
Debug: 3059 57834 armv7m.c:174 armv7m_restore_context():  
Debug: 3060 57834 target.c:1815 target_call_event_callbacks(): target event 2 (resumed) for core stm32h7x.cpu0
Debug: 3061 57834 target.c:2688 target_write_u32(): address: 0xe0002010, value: 0x0809da81
Debug: 3062 57834 cortex_m.c:1994 cortex_m_set_breakpoint(): [stm32h7x.cpu0] fpc_num 2 fpcr_value 0x809da81
Debug: 3063 57834 cortex_m.c:2030 cortex_m_set_breakpoint(): [stm32h7x.cpu0] BPID: 32, Type: 0, Address: 0x0809da80 Length: 2 (n=2)
Debug: 3064 57834 breakpoints.c:88 breakpoint_add_internal(): [0] added hardware breakpoint at 0x0809da80 of length 0x00000002, (BPID: 32)
Debug: 3065 57834 cortex_m.c:1520 cortex_m_step(): [stm32h7x.cpu0] Starting core to serve pending interrupts
Debug: 3066 57835 cortex_m.c:2051 cortex_m_unset_breakpoint(): [stm32h7x.cpu0] BPID: 32, Type: 0, Address: 0x0809da80 Length: 2 (n=2)
Debug: 3067 57835 target.c:2688 target_write_u32(): address: 0xe0002010, value: 0x00000000
Debug: 3068 57835 breakpoints.c:296 breakpoint_free(): free BPID: 32 --> 0
Debug: 3069 57837 cortex_m.c:1579 cortex_m_step(): [stm32h7x.cpu0] target stepped dcb_dhcsr = 0x1030007 nvic_icsr = 0x0
Debug: 3070 57837 cortex_m.c:803 cortex_m_debug_entry(): [stm32h7x.cpu0]  
Debug: 3071 57839 cortex_m.c:544 cortex_m_clear_halt(): [stm32h7x.cpu0] NVIC_DFSR 0x3
Debug: 3072 57848 cortex_m.c:346 cortex_m_fast_read_all_regs(): [stm32h7x.cpu0] read 53 32-bit registers
Debug: 3073 57848 cortex_m.c:873 cortex_m_debug_entry(): [stm32h7x.cpu0] entered debug state in core mode: Thread at PC 0x807959c, cpu in Non-Secure state, target->state: halted
Debug: 3074 57848 target.c:1815 target_call_event_callbacks(): target event 0 (gdb-halt) for core stm32h7x.cpu0
Debug: 3075 57848 target.c:1815 target_call_event_callbacks(): target event 1 (halted) for core stm32h7x.cpu0
Debug: 3076 57848 target.c:1815 target_call_event_callbacks(): target event 8 (gdb-end) for core stm32h7x.cpu0
Debug: 3077 57848 cortex_m.c:1588 cortex_m_step(): [stm32h7x.cpu0] target stepped dcb_dhcsr = 0x30003 nvic_icsr = 0x0
Debug: 3078 57848 target.c:1815 target_call_event_callbacks(): target event 6 (step-end) for core stm32h7x.cpu0
Debug: 3079 57849 gdb_server.c:148 gdb_last_signal(): [stm32h7x.cpu0] Debug reason is: SINGLESTEP
Debug: 3080 57849 gdb_server.c:391 gdb_log_outgoing_packet(): [stm32h7x.cpu0] sending packet: $T05#b9
Debug: 3081 57849 target.c:2447 target_read_buffer(): reading buffer of 24 byte at 0x20000018
Debug: 3082 57850 gdb_server.c:375 gdb_log_incoming_packet(): [stm32h7x.cpu0] received packet: g
Debug: 3083 57850 gdb_server.c:391 gdb_log_outgoing_packet(): [stm32h7x.cpu0] sending packet: $09000000d9b100240900000000000000efbeaddeefbeaddeefbeadde98b20024efbeaddeefbeaddeefbeaddeefbeadde7b06002098b2002485da09089c95070800000061#22
Debug: 3084 57850 gdb_server.c:375 gdb_log_incoming_packet(): [stm32h7x.cpu0] received packet: m807959c,4
Debug: 3085 57850 gdb_server.c:1521 gdb_read_memory_packet(): addr: 0x000000000807959c, len: 0x00000004
Debug: 3086 57850 target.c:2447 target_read_buffer(): reading buffer of 4 byte at 0x0807959c
Debug: 3087 57851 gdb_server.c:391 gdb_log_outgoing_packet(): [stm32h7x.cpu0] sending packet: $80b582b0#fb
Debug: 3088 57851 gdb_server.c:375 gdb_log_incoming_packet(): [stm32h7x.cpu0] received packet: m809da84,4
Debug: 3089 57851 gdb_server.c:1521 gdb_read_memory_packet(): addr: 0x000000000809da84, len: 0x00000004
Debug: 3090 57851 target.c:2447 target_read_buffer(): reading buffer of 4 byte at 0x0809da84
Debug: 3091 57851 gdb_server.c:391 gdb_log_outgoing_packet(): [stm32h7x.cpu0] sending packet: $034623e0#c7
Debug: 3092 57852 gdb_server.c:375 gdb_log_incoming_packet(): [stm32h7x.cpu0] received packet: m2400b280,40
Debug: 3093 57852 gdb_server.c:1521 gdb_read_memory_packet(): addr: 0x000000002400b280, len: 0x00000040
Debug: 3094 57852 target.c:2447 target_read_buffer(): reading buffer of 64 byte at 0x2400b280
Debug: 3095 57853 gdb_server.c:391 gdb_log_outgoing_packet(): [stm32h7x.cpu0] sending packet: $09000000000000007b060020b7de090880da0908000000617b06000000000000a8b20024b7de0908efbeadde0000000000000000000000000000000000000000#87
Debug: 3096 57854 gdb_server.c:375 gdb_log_incoming_packet(): [stm32h7x.cpu0] received packet: m8079580,40
Debug: 3097 57854 gdb_server.c:1521 gdb_read_memory_packet(): addr: 0x0000000008079580, len: 0x00000040
Debug: 3098 57854 target.c:2447 target_read_buffer(): reading buffer of 64 byte at 0x08079580
Debug: 3099 57855 gdb_server.c:391 gdb_log_outgoing_packet(): [stm32h7x.cpu0] sending packet: $00e000bf7a680449002003f0aafb00bf1037bd4680bd00bff4990a0880b582b000af4ff0ff337b600023fb703b4601221946002002f0c0f90346fb70fb78012b#da
Debug: 3100 57855 gdb_server.c:375 gdb_log_incoming_packet(): [stm32h7x.cpu0] received packet: m80795a2,2
Debug: 3101 57855 gdb_server.c:1521 gdb_read_memory_packet(): addr: 0x00000000080795a2, len: 0x00000002
Debug: 3102 57855 target.c:2447 target_read_buffer(): reading buffer of 2 byte at 0x080795a2
Debug: 3103 57856 gdb_server.c:391 gdb_log_outgoing_packet(): [stm32h7x.cpu0] sending packet: $4ff0#30
Debug: 3104 57856 gdb_server.c:375 gdb_log_incoming_packet(): [stm32h7x.cpu0] received packet: Z1,80795a2,2
Debug: 3105 57856 gdb_server.c:1750 gdb_breakpoint_watchpoint_packet(): [stm32h7x.cpu0]
Debug: 3106 57856 target.c:2688 target_write_u32(): address: 0xe0002010, value: 0x080795a3
Debug: 3107 57857 cortex_m.c:1994 cortex_m_set_breakpoint(): [stm32h7x.cpu0] fpc_num 2 fpcr_value 0x80795a3
Debug: 3108 57857 cortex_m.c:2030 cortex_m_set_breakpoint(): [stm32h7x.cpu0] BPID: 33, Type: 0, Address: 0x080795a2 Length: 2 (n=2)
Debug: 3109 57857 breakpoints.c:88 breakpoint_add_internal(): [0] added hardware breakpoint at 0x080795a2 of length 0x00000002, (BPID: 33)
Debug: 3110 57857 gdb_server.c:391 gdb_log_outgoing_packet(): [stm32h7x.cpu0] sending packet: $OK#9a
Debug: 3111 57857 gdb_server.c:375 gdb_log_incoming_packet(): [stm32h7x.cpu0] received packet: vCont;c
Debug: 3112 57857 gdb_server.c:3049 gdb_handle_vcont_packet(): target stm32h7x.cpu0 continue
Debug: 3113 57857 target.c:1815 target_call_event_callbacks(): target event 3 (resume-start) for core stm32h7x.cpu0
Debug: 3114 57857 target.c:2171 target_free_all_working_areas_restore(): freeing all working areas
Debug: 3115 57857 armv7m.c:174 armv7m_restore_context():  
Debug: 3116 57858 target.c:1815 target_call_event_callbacks(): target event 2 (resumed) for core stm32h7x.cpu0
Debug: 3117 57858 cortex_m.c:1392 cortex_m_resume(): [stm32h7x.cpu0] resumed at 0x0807959c
Debug: 3118 57858 target.c:1815 target_call_event_callbacks(): target event 4 (resume-end) for core stm32h7x.cpu0
Debug: 3119 57858 target.c:1815 target_call_event_callbacks(): target event 7 (gdb-start) for core stm32h7x.cpu0
Debug: 3120 57955 cortex_m.c:803 cortex_m_debug_entry(): [stm32h7x.cpu0]  
Debug: 3121 57956 cortex_m.c:544 cortex_m_clear_halt(): [stm32h7x.cpu0] NVIC_DFSR 0x3
Debug: 3122 57967 cortex_m.c:346 cortex_m_fast_read_all_regs(): [stm32h7x.cpu0] read 53 32-bit registers
Debug: 3123 57967 cortex_m.c:873 cortex_m_debug_entry(): [stm32h7x.cpu0] entered debug state in core mode: Thread at PC 0x80795a2, cpu in Non-Secure state, target->state: halted
Debug: 3124 57967 target.c:1815 target_call_event_callbacks(): target event 0 (gdb-halt) for core stm32h7x.cpu0
Debug: 3125 57967 gdb_server.c:148 gdb_last_signal(): [stm32h7x.cpu0] Debug reason is: BREAKPOINT
Debug: 3126 57967 gdb_server.c:391 gdb_log_outgoing_packet(): [stm32h7x.cpu0] sending packet: $T05#b9
Debug: 3127 57967 target.c:1815 target_call_event_callbacks(): target event 1 (halted) for core stm32h7x.cpu0
Debug: 3128 57967 target.c:1815 target_call_event_callbacks(): target event 8 (gdb-end) for core stm32h7x.cpu0
Debug: 3129 57967 target.c:2447 target_read_buffer(): reading buffer of 24 byte at 0x20000018
Debug: 3130 57968 gdb_server.c:375 gdb_log_incoming_packet(): [stm32h7x.cpu0] received packet: g
Debug: 3131 57968 gdb_server.c:391 gdb_log_outgoing_packet(): [stm32h7x.cpu0] sending packet: $09000000d9b100240900000000000000efbeaddeefbeaddeefbeadde88b20024efbeaddeefbeaddeefbeaddeefbeadde7b06002088b2002485da0908a295070800000061#17
Debug: 3132 57969 gdb_server.c:375 gdb_log_incoming_packet(): [stm32h7x.cpu0] received packet: z1,80795a2,2
Debug: 3133 57969 gdb_server.c:1750 gdb_breakpoint_watchpoint_packet(): [stm32h7x.cpu0]
Debug: 3134 57969 cortex_m.c:2051 cortex_m_unset_breakpoint(): [stm32h7x.cpu0] BPID: 33, Type: 0, Address: 0x080795a2 Length: 2 (n=2)
Debug: 3135 57969 target.c:2688 target_write_u32(): address: 0xe0002010, value: 0x00000000
Debug: 3136 57969 breakpoints.c:296 breakpoint_free(): free BPID: 33 --> 0
Debug: 3137 57969 gdb_server.c:391 gdb_log_outgoing_packet(): [stm32h7x.cpu0] sending packet: $OK#9a
Debug: 3138 57970 gdb_server.c:375 gdb_log_incoming_packet(): [stm32h7x.cpu0] received packet: m80795a2,4
Debug: 3139 57970 gdb_server.c:1521 gdb_read_memory_packet(): addr: 0x00000000080795a2, len: 0x00000004
Debug: 3140 57970 target.c:2447 target_read_buffer(): reading buffer of 4 byte at 0x080795a2
Debug: 3141 57970 gdb_server.c:391 gdb_log_outgoing_packet(): [stm32h7x.cpu0] sending packet: $4ff0ff33#62
Debug: 3142 57970 gdb_server.c:375 gdb_log_incoming_packet(): [stm32h7x.cpu0] received packet: m2400b280,40
Debug: 3143 57970 gdb_server.c:1521 gdb_read_memory_packet(): addr: 0x000000002400b280, len: 0x00000040
Debug: 3144 57971 target.c:2447 target_read_buffer(): reading buffer of 64 byte at 0x2400b280
Debug: 3145 57972 gdb_server.c:391 gdb_log_outgoing_packet(): [stm32h7x.cpu0] sending packet: $09000000000000007b06002085da090898b2002485da09087b06000000000000a8b20024b7de0908efbeadde0000000000000000000000000000000000000000#a0
Debug: 3146 57972 gdb_server.c:375 gdb_log_incoming_packet(): [stm32h7x.cpu0] received packet: m809da84,4
Debug: 3147 57972 gdb_server.c:1521 gdb_read_memory_packet(): addr: 0x000000000809da84, len: 0x00000004
Debug: 3148 57972 target.c:2447 target_read_buffer(): reading buffer of 4 byte at 0x0809da84
Debug: 3149 57972 gdb_server.c:391 gdb_log_outgoing_packet(): [stm32h7x.cpu0] sending packet: $034623e0#c7
Debug: 3150 57973 gdb_server.c:375 gdb_log_incoming_packet(): [stm32h7x.cpu0] received packet: m8079580,40
Debug: 3151 57973 gdb_server.c:1521 gdb_read_memory_packet(): addr: 0x0000000008079580, len: 0x00000040
Debug: 3152 57973 target.c:2447 target_read_buffer(): reading buffer of 64 byte at 0x08079580
Debug: 3153 57974 gdb_server.c:391 gdb_log_outgoing_packet(): [stm32h7x.cpu0] sending packet: $00e000bf7a680449002003f0aafb00bf1037bd4680bd00bff4990a0880b582b000af4ff0ff337b600023fb703b4601221946002002f0c0f90346fb70fb78012b#da
Debug: 3154 57975 gdb_server.c:375 gdb_log_incoming_packet(): [stm32h7x.cpu0] received packet: qXfer:threads:read::0,1000
Debug: 3155 57975 gdb_server.c:388 gdb_log_outgoing_packet(): [stm32h7x.cpu0] sending packet: $<binary-data-44-bytes>#02
Debug: 3156 57975 gdb_server.c:375 gdb_log_incoming_packet(): [stm32h7x.cpu0] received packet: z1,80795c2,2
Debug: 3157 57975 gdb_server.c:1750 gdb_breakpoint_watchpoint_packet(): [stm32h7x.cpu0]
Debug: 3158 57975 cortex_m.c:2051 cortex_m_unset_breakpoint(): [stm32h7x.cpu0] BPID: 30, Type: 0, Address: 0x080795c2 Length: 2 (n=0)
Debug: 3159 57975 target.c:2688 target_write_u32(): address: 0xe0002008, value: 0x00000000
Debug: 3160 57976 breakpoints.c:296 breakpoint_free(): free BPID: 30 --> 0
Debug: 3161 57976 gdb_server.c:391 gdb_log_outgoing_packet(): [stm32h7x.cpu0] sending packet: $OK#9a
Debug: 3162 57976 gdb_server.c:375 gdb_log_incoming_packet(): [stm32h7x.cpu0] received packet: z1,809deb2,2
Debug: 3163 57976 gdb_server.c:1750 gdb_breakpoint_watchpoint_packet(): [stm32h7x.cpu0]
Debug: 3164 57976 cortex_m.c:2051 cortex_m_unset_breakpoint(): [stm32h7x.cpu0] BPID: 31, Type: 0, Address: 0x0809deb2 Length: 2 (n=1)
Debug: 3165 57976 target.c:2688 target_write_u32(): address: 0xe000200c, value: 0x00000000
Debug: 3166 57977 breakpoints.c:296 breakpoint_free(): free BPID: 31 --> 0
Debug: 3167 57977 gdb_server.c:391 gdb_log_outgoing_packet(): [stm32h7x.cpu0] sending packet: $OK#9a
Debug: 3168 57977 gdb_server.c:375 gdb_log_incoming_packet(): [stm32h7x.cpu0] received packet: m80795a2,4
Debug: 3169 57977 gdb_server.c:1521 gdb_read_memory_packet(): addr: 0x00000000080795a2, len: 0x00000004
Debug: 3170 57977 target.c:2447 target_read_buffer(): reading buffer of 4 byte at 0x080795a2
Debug: 3171 57978 gdb_server.c:391 gdb_log_outgoing_packet(): [stm32h7x.cpu0] sending packet: $4ff0ff33#62
Debug: 3172 58002 gdb_server.c:375 gdb_log_incoming_packet(): [stm32h7x.cpu0] received packet: m809da84,4
Debug: 3173 58002 gdb_server.c:1521 gdb_read_memory_packet(): addr: 0x000000000809da84, len: 0x00000004
Debug: 3174 58002 target.c:2447 target_read_buffer(): reading buffer of 4 byte at 0x0809da84
Debug: 3175 58002 gdb_server.c:391 gdb_log_outgoing_packet(): [stm32h7x.cpu0] sending packet: $034623e0#c7
Debug: 3176 58003 gdb_server.c:375 gdb_log_incoming_packet(): [stm32h7x.cpu0] received packet: m809deb6,4
Debug: 3177 58003 gdb_server.c:1521 gdb_read_memory_packet(): addr: 0x000000000809deb6, len: 0x00000004
Debug: 3178 58003 target.c:2447 target_read_buffer(): reading buffer of 4 byte at 0x0809deb6
Debug: 3179 58003 gdb_server.c:391 gdb_log_outgoing_packet(): [stm32h7x.cpu0] sending packet: $f860fb68#3a
Debug: 3180 58004 gdb_server.c:375 gdb_log_incoming_packet(): [stm32h7x.cpu0] received packet: m2400b2c0,40
Debug: 3181 58004 gdb_server.c:1521 gdb_read_memory_packet(): addr: 0x000000002400b2c0, len: 0x00000040
Debug: 3182 58004 target.c:2447 target_read_buffer(): reading buffer of 64 byte at 0x2400b2c0
Debug: 3183 58005 gdb_server.c:391 gdb_log_outgoing_packet(): [stm32h7x.cpu0] sending packet: $00000000dd600a08efbeaddedd600a0823232323797d002450350000102500006473656d0000000000000000000000000201000028a00024a40e0024fcb20024#18
Debug: 3184 58006 gdb_server.c:375 gdb_log_incoming_packet(): [stm32h7x.cpu0] received packet: m80a60dc,4
Debug: 3185 58006 gdb_server.c:1521 gdb_read_memory_packet(): addr: 0x00000000080a60dc, len: 0x00000004
Debug: 3186 58006 target.c:2447 target_read_buffer(): reading buffer of 4 byte at 0x080a60dc
Debug: 3187 58006 gdb_server.c:391 gdb_log_outgoing_packet(): [stm32h7x.cpu0] sending packet: $90b583b0#fd
Debug: 3188 58007 gdb_server.c:375 gdb_log_incoming_packet(): [stm32h7x.cpu0] received packet: m80a60dc,4
Debug: 3189 58007 gdb_server.c:1521 gdb_read_memory_packet(): addr: 0x00000000080a60dc, len: 0x00000004
Debug: 3190 58007 target.c:2447 target_read_buffer(): reading buffer of 4 byte at 0x080a60dc
Debug: 3191 58008 gdb_server.c:391 gdb_log_outgoing_packet(): [stm32h7x.cpu0] sending packet: $90b583b0#fd
Debug: 3192 58063 target.c:2447 target_read_buffer(): reading buffer of 24 byte at 0x20000018
Debug: 3193 58171 target.c:2447 target_read_buffer(): reading buffer of 24 byte at 0x20000018
Debug: 3194 58281 target.c:2447 target_read_buffer(): reading buffer of 24 byte at 0x20000018
Debug: 3195 58327 gdb_server.c:375 gdb_log_incoming_packet(): [stm32h7x.cpu0] received packet: m240048e8,4
Debug: 3196 58328 gdb_server.c:1521 gdb_read_memory_packet(): addr: 0x00000000240048e8, len: 0x00000004
Debug: 3197 58328 target.c:2447 target_read_buffer(): reading buffer of 4 byte at 0x240048e8
Debug: 3198 58328 gdb_server.c:391 gdb_log_outgoing_packet(): [stm32h7x.cpu0] sending packet: $00000000#80
Debug: 3199 58386 target.c:2447 target_read_buffer(): reading buffer of 24 byte at 0x20000018
Debug: 3200 58407 gdb_server.c:375 gdb_log_incoming_packet(): [stm32h7x.cpu0] received packet: m240048ee,2
Debug: 3201 58408 gdb_server.c:1521 gdb_read_memory_packet(): addr: 0x00000000240048ee, len: 0x00000002
Debug: 3202 58408 target.c:2447 target_read_buffer(): reading buffer of 2 byte at 0x240048ee
Debug: 3203 58408 gdb_server.c:391 gdb_log_outgoing_packet(): [stm32h7x.cpu0] sending packet: $0000#c0
Debug: 3204 58432 gdb_server.c:375 gdb_log_incoming_packet(): [stm32h7x.cpu0] received packet: m240048f0,2
Debug: 3205 58432 gdb_server.c:1521 gdb_read_memory_packet(): addr: 0x00000000240048f0, len: 0x00000002
Debug: 3206 58432 target.c:2447 target_read_buffer(): reading buffer of 2 byte at 0x240048f0
Debug: 3207 58432 gdb_server.c:391 gdb_log_outgoing_packet(): [stm32h7x.cpu0] sending packet: $0000#c0
Debug: 3208 58447 gdb_server.c:375 gdb_log_incoming_packet(): [stm32h7x.cpu0] received packet: m240048f2,2
Debug: 3209 58447 gdb_server.c:1521 gdb_read_memory_packet(): addr: 0x00000000240048f2, len: 0x00000002
Debug: 3210 58447 target.c:2447 target_read_buffer(): reading buffer of 2 byte at 0x240048f2
Debug: 3211 58448 gdb_server.c:391 gdb_log_outgoing_packet(): [stm32h7x.cpu0] sending packet: $0000#c0
Debug: 3212 58464 gdb_server.c:375 gdb_log_incoming_packet(): [stm32h7x.cpu0] received packet: m240048f4,2
Debug: 3213 58464 gdb_server.c:1521 gdb_read_memory_packet(): addr: 0x00000000240048f4, len: 0x00000002
Debug: 3214 58464 target.c:2447 target_read_buffer(): reading buffer of 2 byte at 0x240048f4
Debug: 3215 58465 gdb_server.c:391 gdb_log_outgoing_packet(): [stm32h7x.cpu0] sending packet: $0000#c0
Debug: 3216 58472 gdb_server.c:375 gdb_log_incoming_packet(): [stm32h7x.cpu0] received packet: m240048f6,2
Debug: 3217 58472 gdb_server.c:1521 gdb_read_memory_packet(): addr: 0x00000000240048f6, len: 0x00000002
Debug: 3218 58472 target.c:2447 target_read_buffer(): reading buffer of 2 byte at 0x240048f6
Debug: 3219 58473 gdb_server.c:391 gdb_log_outgoing_packet(): [stm32h7x.cpu0] sending packet: $0000#c0
Debug: 3220 58492 target.c:2447 target_read_buffer(): reading buffer of 24 byte at 0x20000018
Debug: 3221 58493 gdb_server.c:375 gdb_log_incoming_packet(): [stm32h7x.cpu0] received packet: m240048f8,2
Debug: 3222 58493 gdb_server.c:1521 gdb_read_memory_packet(): addr: 0x00000000240048f8, len: 0x00000002
Debug: 3223 58493 target.c:2447 target_read_buffer(): reading buffer of 2 byte at 0x240048f8
Debug: 3224 58493 gdb_server.c:391 gdb_log_outgoing_packet(): [stm32h7x.cpu0] sending packet: $0000#c0
Debug: 3225 58494 gdb_server.c:375 gdb_log_incoming_packet(): [stm32h7x.cpu0] received packet: m240048ec,2
Debug: 3226 58494 gdb_server.c:1521 gdb_read_memory_packet(): addr: 0x00000000240048ec, len: 0x00000002
Debug: 3227 58494 target.c:2447 target_read_buffer(): reading buffer of 2 byte at 0x240048ec
Debug: 3228 58495 gdb_server.c:391 gdb_log_outgoing_packet(): [stm32h7x.cpu0] sending packet: $0000#c0
Debug: 3229 58600 target.c:2447 target_read_buffer(): reading buffer of 24 byte at 0x20000018
Debug: 3230 58707 target.c:2447 target_read_buffer(): reading buffer of 24 byte at 0x20000018
Debug: 3231 58817 target.c:2447 target_read_buffer(): reading buffer of 24 byte at 0x20000018
Debug: 3232 58925 target.c:2447 target_read_buffer(): reading buffer of 24 byte at 0x20000018
Debug: 3233 59033 target.c:2447 target_read_buffer(): reading buffer of 24 byte at 0x20000018
Debug: 3234 59142 target.c:2447 target_read_buffer(): reading buffer of 24 byte at 0x20000018
Debug: 3235 59237 gdb_server.c:375 gdb_log_incoming_packet(): [stm32h7x.cpu0] received packet: Z1,80795c2,2
Debug: 3236 59237 gdb_server.c:1750 gdb_breakpoint_watchpoint_packet(): [stm32h7x.cpu0]
Debug: 3237 59237 target.c:2688 target_write_u32(): address: 0xe0002008, value: 0x080795c3
Debug: 3238 59238 cortex_m.c:1994 cortex_m_set_breakpoint(): [stm32h7x.cpu0] fpc_num 0 fpcr_value 0x80795c3
Debug: 3239 59238 cortex_m.c:2030 cortex_m_set_breakpoint(): [stm32h7x.cpu0] BPID: 34, Type: 0, Address: 0x080795c2 Length: 2 (n=0)
Debug: 3240 59238 breakpoints.c:88 breakpoint_add_internal(): [0] added hardware breakpoint at 0x080795c2 of length 0x00000002, (BPID: 34)
Debug: 3241 59238 gdb_server.c:391 gdb_log_outgoing_packet(): [stm32h7x.cpu0] sending packet: $OK#9a
Debug: 3242 59238 gdb_server.c:375 gdb_log_incoming_packet(): [stm32h7x.cpu0] received packet: Z1,809deb2,2
Debug: 3243 59238 gdb_server.c:1750 gdb_breakpoint_watchpoint_packet(): [stm32h7x.cpu0]
Debug: 3244 59238 target.c:2688 target_write_u32(): address: 0xe000200c, value: 0x0809deb3
Debug: 3245 59239 cortex_m.c:1994 cortex_m_set_breakpoint(): [stm32h7x.cpu0] fpc_num 1 fpcr_value 0x809deb3
Debug: 3246 59239 cortex_m.c:2030 cortex_m_set_breakpoint(): [stm32h7x.cpu0] BPID: 35, Type: 0, Address: 0x0809deb2 Length: 2 (n=1)
Debug: 3247 59239 breakpoints.c:88 breakpoint_add_internal(): [0] added hardware breakpoint at 0x0809deb2 of length 0x00000002, (BPID: 35)
Debug: 3248 59239 gdb_server.c:391 gdb_log_outgoing_packet(): [stm32h7x.cpu0] sending packet: $OK#9a
Debug: 3249 59239 gdb_server.c:375 gdb_log_incoming_packet(): [stm32h7x.cpu0] received packet: vCont;s:0;c
Debug: 3250 59239 gdb_server.c:3137 gdb_handle_vcont_packet(): target stm32h7x.cpu0 single-step thread 0
Debug: 3251 59239 target.c:1815 target_call_event_callbacks(): target event 7 (gdb-start) for core stm32h7x.cpu0
Debug: 3252 59239 target.c:1815 target_call_event_callbacks(): target event 5 (step-start) for core stm32h7x.cpu0
Debug: 3253 59240 target.c:2624 target_read_u16(): address: 0x080795a2, value: 0xf04f
Debug: 3254 59240 armv7m.c:174 armv7m_restore_context():  
Debug: 3255 59240 target.c:1815 target_call_event_callbacks(): target event 2 (resumed) for core stm32h7x.cpu0
Debug: 3256 59240 target.c:2688 target_write_u32(): address: 0xe0002010, value: 0x080795a3
Debug: 3257 59240 cortex_m.c:1994 cortex_m_set_breakpoint(): [stm32h7x.cpu0] fpc_num 2 fpcr_value 0x80795a3
Debug: 3258 59240 cortex_m.c:2030 cortex_m_set_breakpoint(): [stm32h7x.cpu0] BPID: 36, Type: 0, Address: 0x080795a2 Length: 2 (n=2)
Debug: 3259 59240 breakpoints.c:88 breakpoint_add_internal(): [0] added hardware breakpoint at 0x080795a2 of length 0x00000002, (BPID: 36)
Debug: 3260 59240 cortex_m.c:1520 cortex_m_step(): [stm32h7x.cpu0] Starting core to serve pending interrupts
Debug: 3261 59241 cortex_m.c:2051 cortex_m_unset_breakpoint(): [stm32h7x.cpu0] BPID: 36, Type: 0, Address: 0x080795a2 Length: 2 (n=2)
Debug: 3262 59241 target.c:2688 target_write_u32(): address: 0xe0002010, value: 0x00000000
Debug: 3263 59241 breakpoints.c:296 breakpoint_free(): free BPID: 36 --> 0
Debug: 3264 59243 cortex_m.c:1579 cortex_m_step(): [stm32h7x.cpu0] target stepped dcb_dhcsr = 0x1030007 nvic_icsr = 0x0
Debug: 3265 59243 cortex_m.c:803 cortex_m_debug_entry(): [stm32h7x.cpu0]  
Debug: 3266 59244 cortex_m.c:544 cortex_m_clear_halt(): [stm32h7x.cpu0] NVIC_DFSR 0x3
Debug: 3267 59254 cortex_m.c:346 cortex_m_fast_read_all_regs(): [stm32h7x.cpu0] read 53 32-bit registers
Debug: 3268 59254 cortex_m.c:873 cortex_m_debug_entry(): [stm32h7x.cpu0] entered debug state in core mode: Thread at PC 0x80795a6, cpu in Non-Secure state, target->state: halted
Debug: 3269 59254 target.c:1815 target_call_event_callbacks(): target event 0 (gdb-halt) for core stm32h7x.cpu0
Debug: 3270 59254 target.c:1815 target_call_event_callbacks(): target event 1 (halted) for core stm32h7x.cpu0
Debug: 3271 59254 target.c:1815 target_call_event_callbacks(): target event 8 (gdb-end) for core stm32h7x.cpu0
Debug: 3272 59254 cortex_m.c:1588 cortex_m_step(): [stm32h7x.cpu0] target stepped dcb_dhcsr = 0x30003 nvic_icsr = 0x0
Debug: 3273 59254 target.c:1815 target_call_event_callbacks(): target event 6 (step-end) for core stm32h7x.cpu0
Debug: 3274 59254 gdb_server.c:148 gdb_last_signal(): [stm32h7x.cpu0] Debug reason is: SINGLESTEP
Debug: 3275 59254 gdb_server.c:391 gdb_log_outgoing_packet(): [stm32h7x.cpu0] sending packet: $T05#b9
Debug: 3276 59255 target.c:2447 target_read_buffer(): reading buffer of 24 byte at 0x20000018
Debug: 3277 59255 gdb_server.c:375 gdb_log_incoming_packet(): [stm32h7x.cpu0] received packet: g
Debug: 3278 59255 gdb_server.c:391 gdb_log_outgoing_packet(): [stm32h7x.cpu0] sending packet: $09000000d9b1002409000000ffffffffefbeaddeefbeaddeefbeadde88b20024efbeaddeefbeaddeefbeaddeefbeadde7b06002088b2002485da0908a695070800000061#cb
Debug: 3279 59256 gdb_server.c:375 gdb_log_incoming_packet(): [stm32h7x.cpu0] received packet: vCont;s:0;c
Debug: 3280 59256 gdb_server.c:3137 gdb_handle_vcont_packet(): target stm32h7x.cpu0 single-step thread 0
Debug: 3281 59256 target.c:1815 target_call_event_callbacks(): target event 7 (gdb-start) for core stm32h7x.cpu0
Debug: 3282 59256 target.c:1815 target_call_event_callbacks(): target event 5 (step-start) for core stm32h7x.cpu0
Debug: 3283 59256 armv7m.c:174 armv7m_restore_context():  
Debug: 3284 59256 target.c:1815 target_call_event_callbacks(): target event 2 (resumed) for core stm32h7x.cpu0
Debug: 3285 59256 target.c:2688 target_write_u32(): address: 0xe0002010, value: 0x080795a7
Debug: 3286 59256 cortex_m.c:1994 cortex_m_set_breakpoint(): [stm32h7x.cpu0] fpc_num 2 fpcr_value 0x80795a7
Debug: 3287 59256 cortex_m.c:2030 cortex_m_set_breakpoint(): [stm32h7x.cpu0] BPID: 37, Type: 0, Address: 0x080795a6 Length: 2 (n=2)
Debug: 3288 59256 breakpoints.c:88 breakpoint_add_internal(): [0] added hardware breakpoint at 0x080795a6 of length 0x00000002, (BPID: 37)
Debug: 3289 59256 cortex_m.c:1520 cortex_m_step(): [stm32h7x.cpu0] Starting core to serve pending interrupts
Debug: 3290 59257 cortex_m.c:2051 cortex_m_unset_breakpoint(): [stm32h7x.cpu0] BPID: 37, Type: 0, Address: 0x080795a6 Length: 2 (n=2)
Debug: 3291 59257 target.c:2688 target_write_u32(): address: 0xe0002010, value: 0x00000000
Debug: 3292 59258 breakpoints.c:296 breakpoint_free(): free BPID: 37 --> 0
Debug: 3293 59259 cortex_m.c:1579 cortex_m_step(): [stm32h7x.cpu0] target stepped dcb_dhcsr = 0x1030007 nvic_icsr = 0x0
Debug: 3294 59259 cortex_m.c:803 cortex_m_debug_entry(): [stm32h7x.cpu0]  
Debug: 3295 59261 cortex_m.c:544 cortex_m_clear_halt(): [stm32h7x.cpu0] NVIC_DFSR 0x3
Debug: 3296 59269 cortex_m.c:346 cortex_m_fast_read_all_regs(): [stm32h7x.cpu0] read 53 32-bit registers
Debug: 3297 59269 cortex_m.c:873 cortex_m_debug_entry(): [stm32h7x.cpu0] entered debug state in core mode: Thread at PC 0x80795a8, cpu in Non-Secure state, target->state: halted
Debug: 3298 59269 target.c:1815 target_call_event_callbacks(): target event 0 (gdb-halt) for core stm32h7x.cpu0
Debug: 3299 59269 target.c:1815 target_call_event_callbacks(): target event 1 (halted) for core stm32h7x.cpu0
Debug: 3300 59269 target.c:1815 target_call_event_callbacks(): target event 8 (gdb-end) for core stm32h7x.cpu0
Debug: 3301 59269 cortex_m.c:1588 cortex_m_step(): [stm32h7x.cpu0] target stepped dcb_dhcsr = 0x30003 nvic_icsr = 0x0
Debug: 3302 59269 target.c:1815 target_call_event_callbacks(): target event 6 (step-end) for core stm32h7x.cpu0
Debug: 3303 59269 gdb_server.c:148 gdb_last_signal(): [stm32h7x.cpu0] Debug reason is: SINGLESTEP
Debug: 3304 59269 gdb_server.c:391 gdb_log_outgoing_packet(): [stm32h7x.cpu0] sending packet: $T05#b9
Debug: 3305 59270 gdb_server.c:375 gdb_log_incoming_packet(): [stm32h7x.cpu0] received packet: g
Debug: 3306 59270 gdb_server.c:391 gdb_log_outgoing_packet(): [stm32h7x.cpu0] sending packet: $09000000d9b1002409000000ffffffffefbeaddeefbeaddeefbeadde88b20024efbeaddeefbeaddeefbeaddeefbeadde7b06002088b2002485da0908a895070800000061#cd
Debug: 3307 59270 gdb_server.c:375 gdb_log_incoming_packet(): [stm32h7x.cpu0] received packet: m80795a8,4
Debug: 3308 59270 gdb_server.c:1521 gdb_read_memory_packet(): addr: 0x00000000080795a8, len: 0x00000004
Debug: 3309 59270 target.c:2447 target_read_buffer(): reading buffer of 4 byte at 0x080795a8
Debug: 3310 59271 gdb_server.c:391 gdb_log_outgoing_packet(): [stm32h7x.cpu0] sending packet: $0023fb70#f4
Debug: 3311 59271 gdb_server.c:375 gdb_log_incoming_packet(): [stm32h7x.cpu0] received packet: m2400b280,40
Debug: 3312 59271 gdb_server.c:1521 gdb_read_memory_packet(): addr: 0x000000002400b280, len: 0x00000040
Debug: 3313 59271 target.c:2447 target_read_buffer(): reading buffer of 64 byte at 0x2400b280
Debug: 3314 59272 gdb_server.c:391 gdb_log_outgoing_packet(): [stm32h7x.cpu0] sending packet: $a6950708000000617b060020ffffffff98b2002485da09087b06000000000000a8b20024b7de0908efbeadde0000000000000000000000000000000000000000#1f
Debug: 3315 59273 gdb_server.c:375 gdb_log_incoming_packet(): [stm32h7x.cpu0] received packet: qXfer:threads:read::0,1000
Debug: 3316 59273 gdb_server.c:388 gdb_log_outgoing_packet(): [stm32h7x.cpu0] sending packet: $<binary-data-44-bytes>#02
Debug: 3317 59273 gdb_server.c:375 gdb_log_incoming_packet(): [stm32h7x.cpu0] received packet: z1,80795c2,2
Debug: 3318 59273 gdb_server.c:1750 gdb_breakpoint_watchpoint_packet(): [stm32h7x.cpu0]
Debug: 3319 59273 cortex_m.c:2051 cortex_m_unset_breakpoint(): [stm32h7x.cpu0] BPID: 34, Type: 0, Address: 0x080795c2 Length: 2 (n=0)
Debug: 3320 59273 target.c:2688 target_write_u32(): address: 0xe0002008, value: 0x00000000
Debug: 3321 59274 breakpoints.c:296 breakpoint_free(): free BPID: 34 --> 0
Debug: 3322 59274 gdb_server.c:391 gdb_log_outgoing_packet(): [stm32h7x.cpu0] sending packet: $OK#9a
Debug: 3323 59275 gdb_server.c:375 gdb_log_incoming_packet(): [stm32h7x.cpu0] received packet: z1,809deb2,2
Debug: 3324 59275 gdb_server.c:1750 gdb_breakpoint_watchpoint_packet(): [stm32h7x.cpu0]
Debug: 3325 59275 cortex_m.c:2051 cortex_m_unset_breakpoint(): [stm32h7x.cpu0] BPID: 35, Type: 0, Address: 0x0809deb2 Length: 2 (n=1)
Debug: 3326 59275 target.c:2688 target_write_u32(): address: 0xe000200c, value: 0x00000000
Debug: 3327 59275 breakpoints.c:296 breakpoint_free(): free BPID: 35 --> 0
Debug: 3328 59275 gdb_server.c:391 gdb_log_outgoing_packet(): [stm32h7x.cpu0] sending packet: $OK#9a
Debug: 3329 59275 gdb_server.c:375 gdb_log_incoming_packet(): [stm32h7x.cpu0] received packet: m80795a8,4
Debug: 3330 59275 gdb_server.c:1521 gdb_read_memory_packet(): addr: 0x00000000080795a8, len: 0x00000004
Debug: 3331 59275 target.c:2447 target_read_buffer(): reading buffer of 4 byte at 0x080795a8
Debug: 3332 59275 gdb_server.c:391 gdb_log_outgoing_packet(): [stm32h7x.cpu0] sending packet: $0023fb70#f4
Debug: 3333 59299 gdb_server.c:375 gdb_log_incoming_packet(): [stm32h7x.cpu0] received packet: m809da84,4
Debug: 3334 59299 gdb_server.c:1521 gdb_read_memory_packet(): addr: 0x000000000809da84, len: 0x00000004
Debug: 3335 59299 target.c:2447 target_read_buffer(): reading buffer of 4 byte at 0x0809da84
Debug: 3336 59299 gdb_server.c:391 gdb_log_outgoing_packet(): [stm32h7x.cpu0] sending packet: $034623e0#c7
Debug: 3337 59300 gdb_server.c:375 gdb_log_incoming_packet(): [stm32h7x.cpu0] received packet: m809deb6,4
Debug: 3338 59300 gdb_server.c:1521 gdb_read_memory_packet(): addr: 0x000000000809deb6, len: 0x00000004
Debug: 3339 59301 target.c:2447 target_read_buffer(): reading buffer of 4 byte at 0x0809deb6
Debug: 3340 59301 gdb_server.c:391 gdb_log_outgoing_packet(): [stm32h7x.cpu0] sending packet: $f860fb68#3a
Debug: 3341 59302 gdb_server.c:375 gdb_log_incoming_packet(): [stm32h7x.cpu0] received packet: m2400b2c0,40
Debug: 3342 59303 gdb_server.c:1521 gdb_read_memory_packet(): addr: 0x000000002400b2c0, len: 0x00000040
Debug: 3343 59303 target.c:2447 target_read_buffer(): reading buffer of 64 byte at 0x2400b2c0
Debug: 3344 59303 gdb_server.c:391 gdb_log_outgoing_packet(): [stm32h7x.cpu0] sending packet: $00000000dd600a08efbeaddedd600a0823232323797d002450350000102500006473656d0000000000000000000000000201000028a00024a40e0024fcb20024#18
Debug: 3345 59304 gdb_server.c:375 gdb_log_incoming_packet(): [stm32h7x.cpu0] received packet: m80a60dc,4
Debug: 3346 59304 gdb_server.c:1521 gdb_read_memory_packet(): addr: 0x00000000080a60dc, len: 0x00000004
Debug: 3347 59304 target.c:2447 target_read_buffer(): reading buffer of 4 byte at 0x080a60dc
Debug: 3348 59305 gdb_server.c:391 gdb_log_outgoing_packet(): [stm32h7x.cpu0] sending packet: $90b583b0#fd
Debug: 3349 59306 gdb_server.c:375 gdb_log_incoming_packet(): [stm32h7x.cpu0] received packet: m80a60dc,4
Debug: 3350 59306 gdb_server.c:1521 gdb_read_memory_packet(): addr: 0x00000000080a60dc, len: 0x00000004
Debug: 3351 59306 target.c:2447 target_read_buffer(): reading buffer of 4 byte at 0x080a60dc
Debug: 3352 59307 gdb_server.c:391 gdb_log_outgoing_packet(): [stm32h7x.cpu0] sending packet: $90b583b0#fd
Debug: 3353 59362 target.c:2447 target_read_buffer(): reading buffer of 24 byte at 0x20000018
Debug: 3354 59472 target.c:2447 target_read_buffer(): reading buffer of 24 byte at 0x20000018
Debug: 3355 59581 target.c:2447 target_read_buffer(): reading buffer of 24 byte at 0x20000018
Debug: 3356 59613 gdb_server.c:375 gdb_log_incoming_packet(): [stm32h7x.cpu0] received packet: m240048e8,4
Debug: 3357 59614 gdb_server.c:1521 gdb_read_memory_packet(): addr: 0x00000000240048e8, len: 0x00000004
Debug: 3358 59614 target.c:2447 target_read_buffer(): reading buffer of 4 byte at 0x240048e8
Debug: 3359 59614 gdb_server.c:391 gdb_log_outgoing_packet(): [stm32h7x.cpu0] sending packet: $00000000#80
Debug: 3360 59627 gdb_server.c:375 gdb_log_incoming_packet(): [stm32h7x.cpu0] received packet: m240048ee,2
Debug: 3361 59627 gdb_server.c:1521 gdb_read_memory_packet(): addr: 0x00000000240048ee, len: 0x00000002
Debug: 3362 59627 target.c:2447 target_read_buffer(): reading buffer of 2 byte at 0x240048ee
Debug: 3363 59627 gdb_server.c:391 gdb_log_outgoing_packet(): [stm32h7x.cpu0] sending packet: $0000#c0
Debug: 3364 59642 gdb_server.c:375 gdb_log_incoming_packet(): [stm32h7x.cpu0] received packet: m240048f0,2
Debug: 3365 59642 gdb_server.c:1521 gdb_read_memory_packet(): addr: 0x00000000240048f0, len: 0x00000002
Debug: 3366 59642 target.c:2447 target_read_buffer(): reading buffer of 2 byte at 0x240048f0
Debug: 3367 59642 gdb_server.c:391 gdb_log_outgoing_packet(): [stm32h7x.cpu0] sending packet: $0000#c0
Debug: 3368 59658 gdb_server.c:375 gdb_log_incoming_packet(): [stm32h7x.cpu0] received packet: m240048f2,2
Debug: 3369 59658 gdb_server.c:1521 gdb_read_memory_packet(): addr: 0x00000000240048f2, len: 0x00000002
Debug: 3370 59658 target.c:2447 target_read_buffer(): reading buffer of 2 byte at 0x240048f2
Debug: 3371 59658 gdb_server.c:391 gdb_log_outgoing_packet(): [stm32h7x.cpu0] sending packet: $0000#c0
Debug: 3372 59673 gdb_server.c:375 gdb_log_incoming_packet(): [stm32h7x.cpu0] received packet: m240048f4,2
Debug: 3373 59673 gdb_server.c:1521 gdb_read_memory_packet(): addr: 0x00000000240048f4, len: 0x00000002
Debug: 3374 59674 target.c:2447 target_read_buffer(): reading buffer of 2 byte at 0x240048f4
Debug: 3375 59674 gdb_server.c:391 gdb_log_outgoing_packet(): [stm32h7x.cpu0] sending packet: $0000#c0
Debug: 3376 59690 target.c:2447 target_read_buffer(): reading buffer of 24 byte at 0x20000018
Debug: 3377 59690 gdb_server.c:375 gdb_log_incoming_packet(): [stm32h7x.cpu0] received packet: m240048f6,2
Debug: 3378 59690 gdb_server.c:1521 gdb_read_memory_packet(): addr: 0x00000000240048f6, len: 0x00000002
Debug: 3379 59690 target.c:2447 target_read_buffer(): reading buffer of 2 byte at 0x240048f6
Debug: 3380 59690 gdb_server.c:391 gdb_log_outgoing_packet(): [stm32h7x.cpu0] sending packet: $0000#c0
Debug: 3381 59705 gdb_server.c:375 gdb_log_incoming_packet(): [stm32h7x.cpu0] received packet: m240048f8,2
Debug: 3382 59706 gdb_server.c:1521 gdb_read_memory_packet(): addr: 0x00000000240048f8, len: 0x00000002
Debug: 3383 59706 target.c:2447 target_read_buffer(): reading buffer of 2 byte at 0x240048f8
Debug: 3384 59706 gdb_server.c:391 gdb_log_outgoing_packet(): [stm32h7x.cpu0] sending packet: $0000#c0
Debug: 3385 59721 gdb_server.c:375 gdb_log_incoming_packet(): [stm32h7x.cpu0] received packet: m240048ec,2
Debug: 3386 59721 gdb_server.c:1521 gdb_read_memory_packet(): addr: 0x00000000240048ec, len: 0x00000002
Debug: 3387 59721 target.c:2447 target_read_buffer(): reading buffer of 2 byte at 0x240048ec
Debug: 3388 59722 gdb_server.c:391 gdb_log_outgoing_packet(): [stm32h7x.cpu0] sending packet: $0000#c0
Debug: 3389 59798 target.c:2447 target_read_buffer(): reading buffer of 24 byte at 0x20000018
Debug: 3390 59905 target.c:2447 target_read_buffer(): reading buffer of 24 byte at 0x20000018
Debug: 3391 60011 target.c:2447 target_read_buffer(): reading buffer of 24 byte at 0x20000018
Debug: 3392 60123 target.c:2447 target_read_buffer(): reading buffer of 24 byte at 0x20000018
Debug: 3393 60230 target.c:2447 target_read_buffer(): reading buffer of 24 byte at 0x20000018
Debug: 3394 60338 target.c:2447 target_read_buffer(): reading buffer of 24 byte at 0x20000018
Debug: 3395 60447 target.c:2447 target_read_buffer(): reading buffer of 24 byte at 0x20000018
Debug: 3396 60557 target.c:2447 target_read_buffer(): reading buffer of 24 byte at 0x20000018
Debug: 3397 60666 target.c:2447 target_read_buffer(): reading buffer of 24 byte at 0x20000018
Debug: 3398 60776 target.c:2447 target_read_buffer(): reading buffer of 24 byte at 0x20000018
Debug: 3399 60822 gdb_server.c:375 gdb_log_incoming_packet(): [stm32h7x.cpu0] received packet: Z1,80795c2,2
Debug: 3400 60822 gdb_server.c:1750 gdb_breakpoint_watchpoint_packet(): [stm32h7x.cpu0]
Debug: 3401 60822 target.c:2688 target_write_u32(): address: 0xe0002008, value: 0x080795c3
Debug: 3402 60823 cortex_m.c:1994 cortex_m_set_breakpoint(): [stm32h7x.cpu0] fpc_num 0 fpcr_value 0x80795c3
Debug: 3403 60823 cortex_m.c:2030 cortex_m_set_breakpoint(): [stm32h7x.cpu0] BPID: 38, Type: 0, Address: 0x080795c2 Length: 2 (n=0)
Debug: 3404 60823 breakpoints.c:88 breakpoint_add_internal(): [0] added hardware breakpoint at 0x080795c2 of length 0x00000002, (BPID: 38)
Debug: 3405 60823 gdb_server.c:391 gdb_log_outgoing_packet(): [stm32h7x.cpu0] sending packet: $OK#9a
Debug: 3406 60823 gdb_server.c:375 gdb_log_incoming_packet(): [stm32h7x.cpu0] received packet: Z1,809deb2,2
Debug: 3407 60823 gdb_server.c:1750 gdb_breakpoint_watchpoint_packet(): [stm32h7x.cpu0]
Debug: 3408 60823 target.c:2688 target_write_u32(): address: 0xe000200c, value: 0x0809deb3
Debug: 3409 60823 cortex_m.c:1994 cortex_m_set_breakpoint(): [stm32h7x.cpu0] fpc_num 1 fpcr_value 0x809deb3
Debug: 3410 60823 cortex_m.c:2030 cortex_m_set_breakpoint(): [stm32h7x.cpu0] BPID: 39, Type: 0, Address: 0x0809deb2 Length: 2 (n=1)
Debug: 3411 60823 breakpoints.c:88 breakpoint_add_internal(): [0] added hardware breakpoint at 0x0809deb2 of length 0x00000002, (BPID: 39)
Debug: 3412 60824 gdb_server.c:391 gdb_log_outgoing_packet(): [stm32h7x.cpu0] sending packet: $OK#9a
Debug: 3413 60824 gdb_server.c:375 gdb_log_incoming_packet(): [stm32h7x.cpu0] received packet: vCont;s:0;c
Debug: 3414 60824 gdb_server.c:3137 gdb_handle_vcont_packet(): target stm32h7x.cpu0 single-step thread 0
Debug: 3415 60824 target.c:1815 target_call_event_callbacks(): target event 7 (gdb-start) for core stm32h7x.cpu0
Debug: 3416 60824 target.c:1815 target_call_event_callbacks(): target event 5 (step-start) for core stm32h7x.cpu0
Debug: 3417 60824 armv7m.c:174 armv7m_restore_context():  
Debug: 3418 60824 target.c:1815 target_call_event_callbacks(): target event 2 (resumed) for core stm32h7x.cpu0
Debug: 3419 60824 target.c:2688 target_write_u32(): address: 0xe0002010, value: 0x080795a9
Debug: 3420 60824 cortex_m.c:1994 cortex_m_set_breakpoint(): [stm32h7x.cpu0] fpc_num 2 fpcr_value 0x80795a9
Debug: 3421 60824 cortex_m.c:2030 cortex_m_set_breakpoint(): [stm32h7x.cpu0] BPID: 40, Type: 0, Address: 0x080795a8 Length: 2 (n=2)
Debug: 3422 60824 breakpoints.c:88 breakpoint_add_internal(): [0] added hardware breakpoint at 0x080795a8 of length 0x00000002, (BPID: 40)
Debug: 3423 60824 cortex_m.c:1520 cortex_m_step(): [stm32h7x.cpu0] Starting core to serve pending interrupts
Debug: 3424 60825 cortex_m.c:2051 cortex_m_unset_breakpoint(): [stm32h7x.cpu0] BPID: 40, Type: 0, Address: 0x080795a8 Length: 2 (n=2)
Debug: 3425 60825 target.c:2688 target_write_u32(): address: 0xe0002010, value: 0x00000000
Debug: 3426 60825 breakpoints.c:296 breakpoint_free(): free BPID: 40 --> 0
Debug: 3427 60827 cortex_m.c:1579 cortex_m_step(): [stm32h7x.cpu0] target stepped dcb_dhcsr = 0x1030007 nvic_icsr = 0x0
Debug: 3428 60828 cortex_m.c:803 cortex_m_debug_entry(): [stm32h7x.cpu0]  
Debug: 3429 60828 cortex_m.c:544 cortex_m_clear_halt(): [stm32h7x.cpu0] NVIC_DFSR 0x3
Debug: 3430 60838 cortex_m.c:346 cortex_m_fast_read_all_regs(): [stm32h7x.cpu0] read 53 32-bit registers
Debug: 3431 60838 cortex_m.c:873 cortex_m_debug_entry(): [stm32h7x.cpu0] entered debug state in core mode: Thread at PC 0x80795aa, cpu in Non-Secure state, target->state: halted
Debug: 3432 60838 target.c:1815 target_call_event_callbacks(): target event 0 (gdb-halt) for core stm32h7x.cpu0
Debug: 3433 60838 target.c:1815 target_call_event_callbacks(): target event 1 (halted) for core stm32h7x.cpu0
Debug: 3434 60838 target.c:1815 target_call_event_callbacks(): target event 8 (gdb-end) for core stm32h7x.cpu0
Debug: 3435 60838 cortex_m.c:1588 cortex_m_step(): [stm32h7x.cpu0] target stepped dcb_dhcsr = 0x30003 nvic_icsr = 0x0
Debug: 3436 60838 target.c:1815 target_call_event_callbacks(): target event 6 (step-end) for core stm32h7x.cpu0
Debug: 3437 60839 gdb_server.c:148 gdb_last_signal(): [stm32h7x.cpu0] Debug reason is: SINGLESTEP
Debug: 3438 60839 gdb_server.c:391 gdb_log_outgoing_packet(): [stm32h7x.cpu0] sending packet: $T05#b9
Debug: 3439 60839 gdb_server.c:375 gdb_log_incoming_packet(): [stm32h7x.cpu0] received packet: g
Debug: 3440 60839 gdb_server.c:391 gdb_log_outgoing_packet(): [stm32h7x.cpu0] sending packet: $09000000d9b100240900000000000000efbeaddeefbeaddeefbeadde88b20024efbeaddeefbeaddeefbeaddeefbeadde7b06002088b2002485da0908aa95070800000061#46
Debug: 3441 60839 gdb_server.c:375 gdb_log_incoming_packet(): [stm32h7x.cpu0] received packet: vCont;s:0;c
Debug: 3442 60839 gdb_server.c:3137 gdb_handle_vcont_packet(): target stm32h7x.cpu0 single-step thread 0
Debug: 3443 60840 target.c:1815 target_call_event_callbacks(): target event 7 (gdb-start) for core stm32h7x.cpu0
Debug: 3444 60840 target.c:1815 target_call_event_callbacks(): target event 5 (step-start) for core stm32h7x.cpu0
Debug: 3445 60840 armv7m.c:174 armv7m_restore_context():  
Debug: 3446 60840 target.c:1815 target_call_event_callbacks(): target event 2 (resumed) for core stm32h7x.cpu0
Debug: 3447 60840 target.c:2688 target_write_u32(): address: 0xe0002010, value: 0x080795ab
Debug: 3448 60840 cortex_m.c:1994 cortex_m_set_breakpoint(): [stm32h7x.cpu0] fpc_num 2 fpcr_value 0x80795ab
Debug: 3449 60840 cortex_m.c:2030 cortex_m_set_breakpoint(): [stm32h7x.cpu0] BPID: 41, Type: 0, Address: 0x080795aa Length: 2 (n=2)
Debug: 3450 60840 breakpoints.c:88 breakpoint_add_internal(): [0] added hardware breakpoint at 0x080795aa of length 0x00000002, (BPID: 41)
Debug: 3451 60840 cortex_m.c:1520 cortex_m_step(): [stm32h7x.cpu0] Starting core to serve pending interrupts
Debug: 3452 60841 cortex_m.c:2051 cortex_m_unset_breakpoint(): [stm32h7x.cpu0] BPID: 41, Type: 0, Address: 0x080795aa Length: 2 (n=2)
Debug: 3453 60841 target.c:2688 target_write_u32(): address: 0xe0002010, value: 0x00000000
Debug: 3454 60842 breakpoints.c:296 breakpoint_free(): free BPID: 41 --> 0
Debug: 3455 60844 cortex_m.c:1579 cortex_m_step(): [stm32h7x.cpu0] target stepped dcb_dhcsr = 0x1030007 nvic_icsr = 0x0
Debug: 3456 60844 cortex_m.c:803 cortex_m_debug_entry(): [stm32h7x.cpu0]  
Debug: 3457 60845 cortex_m.c:544 cortex_m_clear_halt(): [stm32h7x.cpu0] NVIC_DFSR 0x3
Debug: 3458 60855 cortex_m.c:346 cortex_m_fast_read_all_regs(): [stm32h7x.cpu0] read 53 32-bit registers
Debug: 3459 60855 cortex_m.c:873 cortex_m_debug_entry(): [stm32h7x.cpu0] entered debug state in core mode: Thread at PC 0x80795ac, cpu in Non-Secure state, target->state: halted
Debug: 3460 60855 target.c:1815 target_call_event_callbacks(): target event 0 (gdb-halt) for core stm32h7x.cpu0
Debug: 3461 60855 target.c:1815 target_call_event_callbacks(): target event 1 (halted) for core stm32h7x.cpu0
Debug: 3462 60855 target.c:1815 target_call_event_callbacks(): target event 8 (gdb-end) for core stm32h7x.cpu0
Debug: 3463 60855 cortex_m.c:1588 cortex_m_step(): [stm32h7x.cpu0] target stepped dcb_dhcsr = 0x30003 nvic_icsr = 0x0
Debug: 3464 60855 target.c:1815 target_call_event_callbacks(): target event 6 (step-end) for core stm32h7x.cpu0
Debug: 3465 60855 gdb_server.c:148 gdb_last_signal(): [stm32h7x.cpu0] Debug reason is: SINGLESTEP
Debug: 3466 60855 gdb_server.c:391 gdb_log_outgoing_packet(): [stm32h7x.cpu0] sending packet: $T05#b9
Debug: 3467 60856 gdb_server.c:375 gdb_log_incoming_packet(): [stm32h7x.cpu0] received packet: g
Debug: 3468 60856 gdb_server.c:391 gdb_log_outgoing_packet(): [stm32h7x.cpu0] sending packet: $09000000d9b100240900000000000000efbeaddeefbeaddeefbeadde88b20024efbeaddeefbeaddeefbeaddeefbeadde7b06002088b2002485da0908ac95070800000061#48
Debug: 3469 60856 gdb_server.c:375 gdb_log_incoming_packet(): [stm32h7x.cpu0] received packet: m80795ac,4
Debug: 3470 60856 gdb_server.c:1521 gdb_read_memory_packet(): addr: 0x00000000080795ac, len: 0x00000004
Debug: 3471 60856 target.c:2447 target_read_buffer(): reading buffer of 4 byte at 0x080795ac
Debug: 3472 60857 gdb_server.c:391 gdb_log_outgoing_packet(): [stm32h7x.cpu0] sending packet: $3b460122#c4
Debug: 3473 60857 gdb_server.c:375 gdb_log_incoming_packet(): [stm32h7x.cpu0] received packet: m2400b280,40
Debug: 3474 60857 gdb_server.c:1521 gdb_read_memory_packet(): addr: 0x000000002400b280, len: 0x00000040
Debug: 3475 60857 target.c:2447 target_read_buffer(): reading buffer of 64 byte at 0x2400b280
Debug: 3476 60858 gdb_server.c:391 gdb_log_outgoing_packet(): [stm32h7x.cpu0] sending packet: $aa950708000000617b060000ffffffff98b2002485da09087b06000000000000a8b20024b7de0908efbeadde0000000000000000000000000000000000000000#48
Debug: 3477 60858 gdb_server.c:375 gdb_log_incoming_packet(): [stm32h7x.cpu0] received packet: qXfer:threads:read::0,1000
Debug: 3478 60858 gdb_server.c:388 gdb_log_outgoing_packet(): [stm32h7x.cpu0] sending packet: $<binary-data-44-bytes>#02
Debug: 3479 60859 gdb_server.c:375 gdb_log_incoming_packet(): [stm32h7x.cpu0] received packet: z1,80795c2,2
Debug: 3480 60859 gdb_server.c:1750 gdb_breakpoint_watchpoint_packet(): [stm32h7x.cpu0]
Debug: 3481 60859 cortex_m.c:2051 cortex_m_unset_breakpoint(): [stm32h7x.cpu0] BPID: 38, Type: 0, Address: 0x080795c2 Length: 2 (n=0)
Debug: 3482 60859 target.c:2688 target_write_u32(): address: 0xe0002008, value: 0x00000000
Debug: 3483 60859 breakpoints.c:296 breakpoint_free(): free BPID: 38 --> 0
Debug: 3484 60859 gdb_server.c:391 gdb_log_outgoing_packet(): [stm32h7x.cpu0] sending packet: $OK#9a
Debug: 3485 60860 gdb_server.c:375 gdb_log_incoming_packet(): [stm32h7x.cpu0] received packet: z1,809deb2,2
Debug: 3486 60860 gdb_server.c:1750 gdb_breakpoint_watchpoint_packet(): [stm32h7x.cpu0]
Debug: 3487 60860 cortex_m.c:2051 cortex_m_unset_breakpoint(): [stm32h7x.cpu0] BPID: 39, Type: 0, Address: 0x0809deb2 Length: 2 (n=1)
Debug: 3488 60860 target.c:2688 target_write_u32(): address: 0xe000200c, value: 0x00000000
Debug: 3489 60860 breakpoints.c:296 breakpoint_free(): free BPID: 39 --> 0
Debug: 3490 60860 gdb_server.c:391 gdb_log_outgoing_packet(): [stm32h7x.cpu0] sending packet: $OK#9a
Debug: 3491 60860 gdb_server.c:375 gdb_log_incoming_packet(): [stm32h7x.cpu0] received packet: m80795ac,4
Debug: 3492 60860 gdb_server.c:1521 gdb_read_memory_packet(): addr: 0x00000000080795ac, len: 0x00000004
Debug: 3493 60860 target.c:2447 target_read_buffer(): reading buffer of 4 byte at 0x080795ac
Debug: 3494 60861 gdb_server.c:391 gdb_log_outgoing_packet(): [stm32h7x.cpu0] sending packet: $3b460122#c4
Debug: 3495 60862 gdb_server.c:375 gdb_log_incoming_packet(): [stm32h7x.cpu0] received packet: m809da84,4
Debug: 3496 60862 gdb_server.c:1521 gdb_read_memory_packet(): addr: 0x000000000809da84, len: 0x00000004
Debug: 3497 60862 target.c:2447 target_read_buffer(): reading buffer of 4 byte at 0x0809da84
Debug: 3498 60863 gdb_server.c:391 gdb_log_outgoing_packet(): [stm32h7x.cpu0] sending packet: $034623e0#c7
Debug: 3499 60863 gdb_server.c:375 gdb_log_incoming_packet(): [stm32h7x.cpu0] received packet: m809deb6,4
Debug: 3500 60863 gdb_server.c:1521 gdb_read_memory_packet(): addr: 0x000000000809deb6, len: 0x00000004
Debug: 3501 60863 target.c:2447 target_read_buffer(): reading buffer of 4 byte at 0x0809deb6
Debug: 3502 60864 gdb_server.c:391 gdb_log_outgoing_packet(): [stm32h7x.cpu0] sending packet: $f860fb68#3a
Debug: 3503 60864 gdb_server.c:375 gdb_log_incoming_packet(): [stm32h7x.cpu0] received packet: m2400b2c0,40
Debug: 3504 60864 gdb_server.c:1521 gdb_read_memory_packet(): addr: 0x000000002400b2c0, len: 0x00000040
Debug: 3505 60864 target.c:2447 target_read_buffer(): reading buffer of 64 byte at 0x2400b2c0
Debug: 3506 60865 gdb_server.c:391 gdb_log_outgoing_packet(): [stm32h7x.cpu0] sending packet: $00000000dd600a08efbeaddedd600a0823232323797d002450350000102500006473656d0000000000000000000000000201000028a00024a40e0024fcb20024#18
Debug: 3507 60866 gdb_server.c:375 gdb_log_incoming_packet(): [stm32h7x.cpu0] received packet: m80a60dc,4
Debug: 3508 60866 gdb_server.c:1521 gdb_read_memory_packet(): addr: 0x00000000080a60dc, len: 0x00000004
Debug: 3509 60866 target.c:2447 target_read_buffer(): reading buffer of 4 byte at 0x080a60dc
Debug: 3510 60867 gdb_server.c:391 gdb_log_outgoing_packet(): [stm32h7x.cpu0] sending packet: $90b583b0#fd
Debug: 3511 60867 gdb_server.c:375 gdb_log_incoming_packet(): [stm32h7x.cpu0] received packet: m80a60dc,4
Debug: 3512 60867 gdb_server.c:1521 gdb_read_memory_packet(): addr: 0x00000000080a60dc, len: 0x00000004
Debug: 3513 60867 target.c:2447 target_read_buffer(): reading buffer of 4 byte at 0x080a60dc
Debug: 3514 60868 gdb_server.c:391 gdb_log_outgoing_packet(): [stm32h7x.cpu0] sending packet: $90b583b0#fd
Debug: 3515 60884 target.c:2447 target_read_buffer(): reading buffer of 24 byte at 0x20000018
Debug: 3516 60993 target.c:2447 target_read_buffer(): reading buffer of 24 byte at 0x20000018
Debug: 3517 61100 target.c:2447 target_read_buffer(): reading buffer of 24 byte at 0x20000018
Debug: 3518 61119 gdb_server.c:375 gdb_log_incoming_packet(): [stm32h7x.cpu0] received packet: m240048e8,4
Debug: 3519 61119 gdb_server.c:1521 gdb_read_memory_packet(): addr: 0x00000000240048e8, len: 0x00000004
Debug: 3520 61119 target.c:2447 target_read_buffer(): reading buffer of 4 byte at 0x240048e8
Debug: 3521 61119 gdb_server.c:391 gdb_log_outgoing_packet(): [stm32h7x.cpu0] sending packet: $00000000#80
Debug: 3522 61147 gdb_server.c:375 gdb_log_incoming_packet(): [stm32h7x.cpu0] received packet: m240048ee,2
Debug: 3523 61147 gdb_server.c:1521 gdb_read_memory_packet(): addr: 0x00000000240048ee, len: 0x00000002
Debug: 3524 61147 target.c:2447 target_read_buffer(): reading buffer of 2 byte at 0x240048ee
Debug: 3525 61147 gdb_server.c:391 gdb_log_outgoing_packet(): [stm32h7x.cpu0] sending packet: $0000#c0
Debug: 3526 61163 gdb_server.c:375 gdb_log_incoming_packet(): [stm32h7x.cpu0] received packet: m240048f0,2
Debug: 3527 61163 gdb_server.c:1521 gdb_read_memory_packet(): addr: 0x00000000240048f0, len: 0x00000002
Debug: 3528 61163 target.c:2447 target_read_buffer(): reading buffer of 2 byte at 0x240048f0
Debug: 3529 61164 gdb_server.c:391 gdb_log_outgoing_packet(): [stm32h7x.cpu0] sending packet: $0000#c0
Debug: 3530 61178 gdb_server.c:375 gdb_log_incoming_packet(): [stm32h7x.cpu0] received packet: m240048f2,2
Debug: 3531 61178 gdb_server.c:1521 gdb_read_memory_packet(): addr: 0x00000000240048f2, len: 0x00000002
Debug: 3532 61178 target.c:2447 target_read_buffer(): reading buffer of 2 byte at 0x240048f2
Debug: 3533 61178 gdb_server.c:391 gdb_log_outgoing_packet(): [stm32h7x.cpu0] sending packet: $0000#c0
Debug: 3534 61193 gdb_server.c:375 gdb_log_incoming_packet(): [stm32h7x.cpu0] received packet: m240048f4,2
Debug: 3535 61193 gdb_server.c:1521 gdb_read_memory_packet(): addr: 0x00000000240048f4, len: 0x00000002
Debug: 3536 61193 target.c:2447 target_read_buffer(): reading buffer of 2 byte at 0x240048f4
Debug: 3537 61193 gdb_server.c:391 gdb_log_outgoing_packet(): [stm32h7x.cpu0] sending packet: $0000#c0
Debug: 3538 61207 target.c:2447 target_read_buffer(): reading buffer of 24 byte at 0x20000018
Debug: 3539 61208 gdb_server.c:375 gdb_log_incoming_packet(): [stm32h7x.cpu0] received packet: m240048f6,2
Debug: 3540 61208 gdb_server.c:1521 gdb_read_memory_packet(): addr: 0x00000000240048f6, len: 0x00000002
Debug: 3541 61208 target.c:2447 target_read_buffer(): reading buffer of 2 byte at 0x240048f6
Debug: 3542 61209 gdb_server.c:391 gdb_log_outgoing_packet(): [stm32h7x.cpu0] sending packet: $0000#c0
Debug: 3543 61222 gdb_server.c:375 gdb_log_incoming_packet(): [stm32h7x.cpu0] received packet: m240048f8,2
Debug: 3544 61223 gdb_server.c:1521 gdb_read_memory_packet(): addr: 0x00000000240048f8, len: 0x00000002
Debug: 3545 61223 target.c:2447 target_read_buffer(): reading buffer of 2 byte at 0x240048f8
Debug: 3546 61223 gdb_server.c:391 gdb_log_outgoing_packet(): [stm32h7x.cpu0] sending packet: $0000#c0
Debug: 3547 61239 gdb_server.c:375 gdb_log_incoming_packet(): [stm32h7x.cpu0] received packet: m240048ec,2
Debug: 3548 61239 gdb_server.c:1521 gdb_read_memory_packet(): addr: 0x00000000240048ec, len: 0x00000002
Debug: 3549 61239 target.c:2447 target_read_buffer(): reading buffer of 2 byte at 0x240048ec
Debug: 3550 61240 gdb_server.c:391 gdb_log_outgoing_packet(): [stm32h7x.cpu0] sending packet: $0000#c0
Debug: 3551 61316 target.c:2447 target_read_buffer(): reading buffer of 24 byte at 0x20000018
Debug: 3552 61424 target.c:2447 target_read_buffer(): reading buffer of 24 byte at 0x20000018
Debug: 3553 61533 target.c:2447 target_read_buffer(): reading buffer of 24 byte at 0x20000018
Debug: 3554 61642 target.c:2447 target_read_buffer(): reading buffer of 24 byte at 0x20000018
Debug: 3555 61750 target.c:2447 target_read_buffer(): reading buffer of 24 byte at 0x20000018
Debug: 3556 61859 target.c:2447 target_read_buffer(): reading buffer of 24 byte at 0x20000018
Debug: 3557 61969 target.c:2447 target_read_buffer(): reading buffer of 24 byte at 0x20000018
Debug: 3558 62078 target.c:2447 target_read_buffer(): reading buffer of 24 byte at 0x20000018
Debug: 3559 62186 target.c:2447 target_read_buffer(): reading buffer of 24 byte at 0x20000018
Debug: 3560 62294 target.c:2447 target_read_buffer(): reading buffer of 24 byte at 0x20000018
Debug: 3561 62294 gdb_server.c:375 gdb_log_incoming_packet(): [stm32h7x.cpu0] received packet: Z1,80795c2,2
Debug: 3562 62294 gdb_server.c:1750 gdb_breakpoint_watchpoint_packet(): [stm32h7x.cpu0]
Debug: 3563 62294 target.c:2688 target_write_u32(): address: 0xe0002008, value: 0x080795c3
Debug: 3564 62294 cortex_m.c:1994 cortex_m_set_breakpoint(): [stm32h7x.cpu0] fpc_num 0 fpcr_value 0x80795c3
Debug: 3565 62294 cortex_m.c:2030 cortex_m_set_breakpoint(): [stm32h7x.cpu0] BPID: 42, Type: 0, Address: 0x080795c2 Length: 2 (n=0)
Debug: 3566 62294 breakpoints.c:88 breakpoint_add_internal(): [0] added hardware breakpoint at 0x080795c2 of length 0x00000002, (BPID: 42)
Debug: 3567 62294 gdb_server.c:391 gdb_log_outgoing_packet(): [stm32h7x.cpu0] sending packet: $OK#9a
Debug: 3568 62294 gdb_server.c:375 gdb_log_incoming_packet(): [stm32h7x.cpu0] received packet: Z1,809deb2,2
Debug: 3569 62294 gdb_server.c:1750 gdb_breakpoint_watchpoint_packet(): [stm32h7x.cpu0]
Debug: 3570 62294 target.c:2688 target_write_u32(): address: 0xe000200c, value: 0x0809deb3
Debug: 3571 62295 cortex_m.c:1994 cortex_m_set_breakpoint(): [stm32h7x.cpu0] fpc_num 1 fpcr_value 0x809deb3
Debug: 3572 62295 cortex_m.c:2030 cortex_m_set_breakpoint(): [stm32h7x.cpu0] BPID: 43, Type: 0, Address: 0x0809deb2 Length: 2 (n=1)
Debug: 3573 62295 breakpoints.c:88 breakpoint_add_internal(): [0] added hardware breakpoint at 0x0809deb2 of length 0x00000002, (BPID: 43)
Debug: 3574 62295 gdb_server.c:391 gdb_log_outgoing_packet(): [stm32h7x.cpu0] sending packet: $OK#9a
Debug: 3575 62295 gdb_server.c:375 gdb_log_incoming_packet(): [stm32h7x.cpu0] received packet: vCont;s:0;c
Debug: 3576 62295 gdb_server.c:3137 gdb_handle_vcont_packet(): target stm32h7x.cpu0 single-step thread 0
Debug: 3577 62295 target.c:1815 target_call_event_callbacks(): target event 7 (gdb-start) for core stm32h7x.cpu0
Debug: 3578 62295 target.c:1815 target_call_event_callbacks(): target event 5 (step-start) for core stm32h7x.cpu0
Debug: 3579 62295 armv7m.c:174 armv7m_restore_context():  
Debug: 3580 62295 target.c:1815 target_call_event_callbacks(): target event 2 (resumed) for core stm32h7x.cpu0
Debug: 3581 62295 target.c:2688 target_write_u32(): address: 0xe0002010, value: 0x080795ad
Debug: 3582 62296 cortex_m.c:1994 cortex_m_set_breakpoint(): [stm32h7x.cpu0] fpc_num 2 fpcr_value 0x80795ad
Debug: 3583 62296 cortex_m.c:2030 cortex_m_set_breakpoint(): [stm32h7x.cpu0] BPID: 44, Type: 0, Address: 0x080795ac Length: 2 (n=2)
Debug: 3584 62296 breakpoints.c:88 breakpoint_add_internal(): [0] added hardware breakpoint at 0x080795ac of length 0x00000002, (BPID: 44)
Debug: 3585 62296 cortex_m.c:1520 cortex_m_step(): [stm32h7x.cpu0] Starting core to serve pending interrupts
Debug: 3586 62296 cortex_m.c:2051 cortex_m_unset_breakpoint(): [stm32h7x.cpu0] BPID: 44, Type: 0, Address: 0x080795ac Length: 2 (n=2)
Debug: 3587 62296 target.c:2688 target_write_u32(): address: 0xe0002010, value: 0x00000000
Debug: 3588 62296 breakpoints.c:296 breakpoint_free(): free BPID: 44 --> 0
Debug: 3589 62298 cortex_m.c:1579 cortex_m_step(): [stm32h7x.cpu0] target stepped dcb_dhcsr = 0x1030007 nvic_icsr = 0x0
Debug: 3590 62298 cortex_m.c:803 cortex_m_debug_entry(): [stm32h7x.cpu0]  
Debug: 3591 62299 cortex_m.c:544 cortex_m_clear_halt(): [stm32h7x.cpu0] NVIC_DFSR 0x3
Debug: 3592 62309 cortex_m.c:346 cortex_m_fast_read_all_regs(): [stm32h7x.cpu0] read 53 32-bit registers
Debug: 3593 62309 cortex_m.c:873 cortex_m_debug_entry(): [stm32h7x.cpu0] entered debug state in core mode: Thread at PC 0x80795ae, cpu in Non-Secure state, target->state: halted
Debug: 3594 62309 target.c:1815 target_call_event_callbacks(): target event 0 (gdb-halt) for core stm32h7x.cpu0
Debug: 3595 62309 target.c:1815 target_call_event_callbacks(): target event 1 (halted) for core stm32h7x.cpu0
Debug: 3596 62309 target.c:1815 target_call_event_callbacks(): target event 8 (gdb-end) for core stm32h7x.cpu0
Debug: 3597 62309 cortex_m.c:1588 cortex_m_step(): [stm32h7x.cpu0] target stepped dcb_dhcsr = 0x30003 nvic_icsr = 0x0
Debug: 3598 62309 target.c:1815 target_call_event_callbacks(): target event 6 (step-end) for core stm32h7x.cpu0
Debug: 3599 62309 gdb_server.c:148 gdb_last_signal(): [stm32h7x.cpu0] Debug reason is: SINGLESTEP
Debug: 3600 62309 gdb_server.c:391 gdb_log_outgoing_packet(): [stm32h7x.cpu0] sending packet: $T05#b9
Debug: 3601 62309 gdb_server.c:375 gdb_log_incoming_packet(): [stm32h7x.cpu0] received packet: g
Debug: 3602 62309 gdb_server.c:391 gdb_log_outgoing_packet(): [stm32h7x.cpu0] sending packet: $09000000d9b100240900000088b20024efbeaddeefbeaddeefbeadde88b20024efbeaddeefbeaddeefbeaddeefbeadde7b06002088b2002485da0908ae95070800000061#94
Debug: 3603 62309 gdb_server.c:375 gdb_log_incoming_packet(): [stm32h7x.cpu0] received packet: vCont;s:0;c
Debug: 3604 62309 gdb_server.c:3137 gdb_handle_vcont_packet(): target stm32h7x.cpu0 single-step thread 0
Debug: 3605 62309 target.c:1815 target_call_event_callbacks(): target event 7 (gdb-start) for core stm32h7x.cpu0
Debug: 3606 62310 target.c:1815 target_call_event_callbacks(): target event 5 (step-start) for core stm32h7x.cpu0
Debug: 3607 62310 armv7m.c:174 armv7m_restore_context():  
Debug: 3608 62310 target.c:1815 target_call_event_callbacks(): target event 2 (resumed) for core stm32h7x.cpu0
Debug: 3609 62310 target.c:2688 target_write_u32(): address: 0xe0002010, value: 0x080795af
Debug: 3610 62310 cortex_m.c:1994 cortex_m_set_breakpoint(): [stm32h7x.cpu0] fpc_num 2 fpcr_value 0x80795af
Debug: 3611 62310 cortex_m.c:2030 cortex_m_set_breakpoint(): [stm32h7x.cpu0] BPID: 45, Type: 0, Address: 0x080795ae Length: 2 (n=2)
Debug: 3612 62310 breakpoints.c:88 breakpoint_add_internal(): [0] added hardware breakpoint at 0x080795ae of length 0x00000002, (BPID: 45)
Debug: 3613 62310 cortex_m.c:1520 cortex_m_step(): [stm32h7x.cpu0] Starting core to serve pending interrupts
Debug: 3614 62311 cortex_m.c:2051 cortex_m_unset_breakpoint(): [stm32h7x.cpu0] BPID: 45, Type: 0, Address: 0x080795ae Length: 2 (n=2)
Debug: 3615 62311 target.c:2688 target_write_u32(): address: 0xe0002010, value: 0x00000000
Debug: 3616 62312 breakpoints.c:296 breakpoint_free(): free BPID: 45 --> 0
Debug: 3617 62313 cortex_m.c:1579 cortex_m_step(): [stm32h7x.cpu0] target stepped dcb_dhcsr = 0x1030007 nvic_icsr = 0x0
Debug: 3618 62313 cortex_m.c:803 cortex_m_debug_entry(): [stm32h7x.cpu0]  
Debug: 3619 62314 cortex_m.c:544 cortex_m_clear_halt(): [stm32h7x.cpu0] NVIC_DFSR 0x3
Debug: 3620 62323 cortex_m.c:346 cortex_m_fast_read_all_regs(): [stm32h7x.cpu0] read 53 32-bit registers
Debug: 3621 62323 cortex_m.c:873 cortex_m_debug_entry(): [stm32h7x.cpu0] entered debug state in core mode: Thread at PC 0x80795b0, cpu in Non-Secure state, target->state: halted
Debug: 3622 62323 target.c:1815 target_call_event_callbacks(): target event 0 (gdb-halt) for core stm32h7x.cpu0
Debug: 3623 62323 target.c:1815 target_call_event_callbacks(): target event 1 (halted) for core stm32h7x.cpu0
Debug: 3624 62323 target.c:1815 target_call_event_callbacks(): target event 8 (gdb-end) for core stm32h7x.cpu0
Debug: 3625 62323 cortex_m.c:1588 cortex_m_step(): [stm32h7x.cpu0] target stepped dcb_dhcsr = 0x30003 nvic_icsr = 0x0
Debug: 3626 62323 target.c:1815 target_call_event_callbacks(): target event 6 (step-end) for core stm32h7x.cpu0
Debug: 3627 62324 gdb_server.c:148 gdb_last_signal(): [stm32h7x.cpu0] Debug reason is: SINGLESTEP
Debug: 3628 62324 gdb_server.c:391 gdb_log_outgoing_packet(): [stm32h7x.cpu0] sending packet: $T05#b9
Debug: 3629 62324 gdb_server.c:375 gdb_log_incoming_packet(): [stm32h7x.cpu0] received packet: g
Debug: 3630 62324 gdb_server.c:391 gdb_log_outgoing_packet(): [stm32h7x.cpu0] sending packet: $09000000d9b100240100000088b20024efbeaddeefbeaddeefbeadde88b20024efbeaddeefbeaddeefbeaddeefbeadde7b06002088b2002485da0908b095070800000021#54
Debug: 3631 62324 gdb_server.c:375 gdb_log_incoming_packet(): [stm32h7x.cpu0] received packet: vCont;s:0;c
Debug: 3632 62324 gdb_server.c:3137 gdb_handle_vcont_packet(): target stm32h7x.cpu0 single-step thread 0
Debug: 3633 62324 target.c:1815 target_call_event_callbacks(): target event 7 (gdb-start) for core stm32h7x.cpu0
Debug: 3634 62324 target.c:1815 target_call_event_callbacks(): target event 5 (step-start) for core stm32h7x.cpu0
Debug: 3635 62324 armv7m.c:174 armv7m_restore_context():  
Debug: 3636 62324 target.c:1815 target_call_event_callbacks(): target event 2 (resumed) for core stm32h7x.cpu0
Debug: 3637 62324 target.c:2688 target_write_u32(): address: 0xe0002010, value: 0x080795b1
Debug: 3638 62324 cortex_m.c:1994 cortex_m_set_breakpoint(): [stm32h7x.cpu0] fpc_num 2 fpcr_value 0x80795b1
Debug: 3639 62324 cortex_m.c:2030 cortex_m_set_breakpoint(): [stm32h7x.cpu0] BPID: 46, Type: 0, Address: 0x080795b0 Length: 2 (n=2)
Debug: 3640 62324 breakpoints.c:88 breakpoint_add_internal(): [0] added hardware breakpoint at 0x080795b0 of length 0x00000002, (BPID: 46)
Debug: 3641 62324 cortex_m.c:1520 cortex_m_step(): [stm32h7x.cpu0] Starting core to serve pending interrupts
Debug: 3642 62325 cortex_m.c:2051 cortex_m_unset_breakpoint(): [stm32h7x.cpu0] BPID: 46, Type: 0, Address: 0x080795b0 Length: 2 (n=2)
Debug: 3643 62325 target.c:2688 target_write_u32(): address: 0xe0002010, value: 0x00000000
Debug: 3644 62325 breakpoints.c:296 breakpoint_free(): free BPID: 46 --> 0
Debug: 3645 62327 cortex_m.c:1579 cortex_m_step(): [stm32h7x.cpu0] target stepped dcb_dhcsr = 0x1030007 nvic_icsr = 0x0
Debug: 3646 62327 cortex_m.c:803 cortex_m_debug_entry(): [stm32h7x.cpu0]  
Debug: 3647 62328 cortex_m.c:544 cortex_m_clear_halt(): [stm32h7x.cpu0] NVIC_DFSR 0x3
Debug: 3648 62337 cortex_m.c:346 cortex_m_fast_read_all_regs(): [stm32h7x.cpu0] read 53 32-bit registers
Debug: 3649 62337 cortex_m.c:873 cortex_m_debug_entry(): [stm32h7x.cpu0] entered debug state in core mode: Thread at PC 0x80795b2, cpu in Non-Secure state, target->state: halted
Debug: 3650 62337 target.c:1815 target_call_event_callbacks(): target event 0 (gdb-halt) for core stm32h7x.cpu0
Debug: 3651 62337 target.c:1815 target_call_event_callbacks(): target event 1 (halted) for core stm32h7x.cpu0
Debug: 3652 62337 target.c:1815 target_call_event_callbacks(): target event 8 (gdb-end) for core stm32h7x.cpu0
Debug: 3653 62337 cortex_m.c:1588 cortex_m_step(): [stm32h7x.cpu0] target stepped dcb_dhcsr = 0x30003 nvic_icsr = 0x0
Debug: 3654 62337 target.c:1815 target_call_event_callbacks(): target event 6 (step-end) for core stm32h7x.cpu0
Debug: 3655 62337 gdb_server.c:148 gdb_last_signal(): [stm32h7x.cpu0] Debug reason is: SINGLESTEP
Debug: 3656 62337 gdb_server.c:391 gdb_log_outgoing_packet(): [stm32h7x.cpu0] sending packet: $T05#b9
Debug: 3657 62337 gdb_server.c:375 gdb_log_incoming_packet(): [stm32h7x.cpu0] received packet: g
Debug: 3658 62337 gdb_server.c:391 gdb_log_outgoing_packet(): [stm32h7x.cpu0] sending packet: $0900000088b200240100000088b20024efbeaddeefbeaddeefbeadde88b20024efbeaddeefbeaddeefbeaddeefbeadde7b06002088b2002485da0908b295070800000021#2a
Debug: 3659 62338 gdb_server.c:375 gdb_log_incoming_packet(): [stm32h7x.cpu0] received packet: vCont;s:0;c
Debug: 3660 62338 gdb_server.c:3137 gdb_handle_vcont_packet(): target stm32h7x.cpu0 single-step thread 0
Debug: 3661 62338 target.c:1815 target_call_event_callbacks(): target event 7 (gdb-start) for core stm32h7x.cpu0
Debug: 3662 62338 target.c:1815 target_call_event_callbacks(): target event 5 (step-start) for core stm32h7x.cpu0
Debug: 3663 62338 armv7m.c:174 armv7m_restore_context():  
Debug: 3664 62338 target.c:1815 target_call_event_callbacks(): target event 2 (resumed) for core stm32h7x.cpu0
Debug: 3665 62339 target.c:2688 target_write_u32(): address: 0xe0002010, value: 0x080795b3
Debug: 3666 62339 cortex_m.c:1994 cortex_m_set_breakpoint(): [stm32h7x.cpu0] fpc_num 2 fpcr_value 0x80795b3
Debug: 3667 62339 cortex_m.c:2030 cortex_m_set_breakpoint(): [stm32h7x.cpu0] BPID: 47, Type: 0, Address: 0x080795b2 Length: 2 (n=2)
Debug: 3668 62339 breakpoints.c:88 breakpoint_add_internal(): [0] added hardware breakpoint at 0x080795b2 of length 0x00000002, (BPID: 47)
Debug: 3669 62339 cortex_m.c:1520 cortex_m_step(): [stm32h7x.cpu0] Starting core to serve pending interrupts
Debug: 3670 62339 cortex_m.c:2051 cortex_m_unset_breakpoint(): [stm32h7x.cpu0] BPID: 47, Type: 0, Address: 0x080795b2 Length: 2 (n=2)
Debug: 3671 62339 target.c:2688 target_write_u32(): address: 0xe0002010, value: 0x00000000
Debug: 3672 62339 breakpoints.c:296 breakpoint_free(): free BPID: 47 --> 0
Debug: 3673 62341 cortex_m.c:1579 cortex_m_step(): [stm32h7x.cpu0] target stepped dcb_dhcsr = 0x1030007 nvic_icsr = 0x0
Debug: 3674 62341 cortex_m.c:803 cortex_m_debug_entry(): [stm32h7x.cpu0]  
Debug: 3675 62343 cortex_m.c:544 cortex_m_clear_halt(): [stm32h7x.cpu0] NVIC_DFSR 0x3
Debug: 3676 62352 cortex_m.c:346 cortex_m_fast_read_all_regs(): [stm32h7x.cpu0] read 53 32-bit registers
Debug: 3677 62352 cortex_m.c:873 cortex_m_debug_entry(): [stm32h7x.cpu0] entered debug state in core mode: Thread at PC 0x80795b4, cpu in Non-Secure state, target->state: halted
Debug: 3678 62352 target.c:1815 target_call_event_callbacks(): target event 0 (gdb-halt) for core stm32h7x.cpu0
Debug: 3679 62352 target.c:1815 target_call_event_callbacks(): target event 1 (halted) for core stm32h7x.cpu0
Debug: 3680 62352 target.c:1815 target_call_event_callbacks(): target event 8 (gdb-end) for core stm32h7x.cpu0
Debug: 3681 62352 cortex_m.c:1588 cortex_m_step(): [stm32h7x.cpu0] target stepped dcb_dhcsr = 0x30003 nvic_icsr = 0x0
Debug: 3682 62352 target.c:1815 target_call_event_callbacks(): target event 6 (step-end) for core stm32h7x.cpu0
Debug: 3683 62352 gdb_server.c:148 gdb_last_signal(): [stm32h7x.cpu0] Debug reason is: SINGLESTEP
Debug: 3684 62352 gdb_server.c:391 gdb_log_outgoing_packet(): [stm32h7x.cpu0] sending packet: $T05#b9
Debug: 3685 62353 gdb_server.c:375 gdb_log_incoming_packet(): [stm32h7x.cpu0] received packet: g
Debug: 3686 62353 gdb_server.c:391 gdb_log_outgoing_packet(): [stm32h7x.cpu0] sending packet: $0000000088b200240100000088b20024efbeaddeefbeaddeefbeadde88b20024efbeaddeefbeaddeefbeaddeefbeadde7b06002088b2002485da0908b495070800000061#27
Debug: 3687 62353 gdb_server.c:375 gdb_log_incoming_packet(): [stm32h7x.cpu0] received packet: vCont;s:0;c
Debug: 3688 62353 gdb_server.c:3137 gdb_handle_vcont_packet(): target stm32h7x.cpu0 single-step thread 0
Debug: 3689 62353 target.c:1815 target_call_event_callbacks(): target event 7 (gdb-start) for core stm32h7x.cpu0
Debug: 3690 62353 target.c:1815 target_call_event_callbacks(): target event 5 (step-start) for core stm32h7x.cpu0
Debug: 3691 62353 armv7m.c:174 armv7m_restore_context():  
Debug: 3692 62353 target.c:1815 target_call_event_callbacks(): target event 2 (resumed) for core stm32h7x.cpu0
Debug: 3693 62353 target.c:2688 target_write_u32(): address: 0xe0002010, value: 0x080795b5
Debug: 3694 62353 cortex_m.c:1994 cortex_m_set_breakpoint(): [stm32h7x.cpu0] fpc_num 2 fpcr_value 0x80795b5
Debug: 3695 62353 cortex_m.c:2030 cortex_m_set_breakpoint(): [stm32h7x.cpu0] BPID: 48, Type: 0, Address: 0x080795b4 Length: 2 (n=2)
Debug: 3696 62353 breakpoints.c:88 breakpoint_add_internal(): [0] added hardware breakpoint at 0x080795b4 of length 0x00000002, (BPID: 48)
Debug: 3697 62353 cortex_m.c:1520 cortex_m_step(): [stm32h7x.cpu0] Starting core to serve pending interrupts
Debug: 3698 62354 cortex_m.c:2051 cortex_m_unset_breakpoint(): [stm32h7x.cpu0] BPID: 48, Type: 0, Address: 0x080795b4 Length: 2 (n=2)
Debug: 3699 62354 target.c:2688 target_write_u32(): address: 0xe0002010, value: 0x00000000
Debug: 3700 62354 breakpoints.c:296 breakpoint_free(): free BPID: 48 --> 0
Debug: 3701 62356 cortex_m.c:1579 cortex_m_step(): [stm32h7x.cpu0] target stepped dcb_dhcsr = 0x1030007 nvic_icsr = 0x0
Debug: 3702 62356 cortex_m.c:803 cortex_m_debug_entry(): [stm32h7x.cpu0]  
Debug: 3703 62357 cortex_m.c:544 cortex_m_clear_halt(): [stm32h7x.cpu0] NVIC_DFSR 0x3
Debug: 3704 62366 cortex_m.c:346 cortex_m_fast_read_all_regs(): [stm32h7x.cpu0] read 53 32-bit registers
Debug: 3705 62366 cortex_m.c:873 cortex_m_debug_entry(): [stm32h7x.cpu0] entered debug state in core mode: Thread at PC 0x807b938, cpu in Non-Secure state, target->state: halted
Debug: 3706 62366 target.c:1815 target_call_event_callbacks(): target event 0 (gdb-halt) for core stm32h7x.cpu0
Debug: 3707 62367 target.c:1815 target_call_event_callbacks(): target event 1 (halted) for core stm32h7x.cpu0
Debug: 3708 62367 target.c:1815 target_call_event_callbacks(): target event 8 (gdb-end) for core stm32h7x.cpu0
Debug: 3709 62367 cortex_m.c:1588 cortex_m_step(): [stm32h7x.cpu0] target stepped dcb_dhcsr = 0x30003 nvic_icsr = 0x0
Debug: 3710 62367 target.c:1815 target_call_event_callbacks(): target event 6 (step-end) for core stm32h7x.cpu0
Debug: 3711 62367 gdb_server.c:148 gdb_last_signal(): [stm32h7x.cpu0] Debug reason is: SINGLESTEP
Debug: 3712 62367 gdb_server.c:391 gdb_log_outgoing_packet(): [stm32h7x.cpu0] sending packet: $T05#b9
Debug: 3713 62368 gdb_server.c:375 gdb_log_incoming_packet(): [stm32h7x.cpu0] received packet: g
Debug: 3714 62368 gdb_server.c:391 gdb_log_outgoing_packet(): [stm32h7x.cpu0] sending packet: $0000000088b200240100000088b20024efbeaddeefbeaddeefbeadde88b20024efbeaddeefbeaddeefbeaddeefbeadde7b06002088b20024b995070838b9070800000061#fe
Debug: 3715 62370 gdb_server.c:375 gdb_log_incoming_packet(): [stm32h7x.cpu0] received packet: m807b938,4
Debug: 3716 62370 gdb_server.c:1521 gdb_read_memory_packet(): addr: 0x000000000807b938, len: 0x00000004
Debug: 3717 62370 target.c:2447 target_read_buffer(): reading buffer of 4 byte at 0x0807b938
Debug: 3718 62370 gdb_server.c:391 gdb_log_outgoing_packet(): [stm32h7x.cpu0] sending packet: $80b586b0#ff
Debug: 3719 62371 gdb_server.c:375 gdb_log_incoming_packet(): [stm32h7x.cpu0] received packet: m80795b8,4
Debug: 3720 62371 gdb_server.c:1521 gdb_read_memory_packet(): addr: 0x00000000080795b8, len: 0x00000004
Debug: 3721 62371 target.c:2447 target_read_buffer(): reading buffer of 4 byte at 0x080795b8
Debug: 3722 62371 gdb_server.c:391 gdb_log_outgoing_packet(): [stm32h7x.cpu0] sending packet: $0346fb70#fc
Debug: 3723 62372 gdb_server.c:375 gdb_log_incoming_packet(): [stm32h7x.cpu0] received packet: m2400b280,40
Debug: 3724 62372 gdb_server.c:1521 gdb_read_memory_packet(): addr: 0x000000002400b280, len: 0x00000040
Debug: 3725 62372 target.c:2447 target_read_buffer(): reading buffer of 64 byte at 0x2400b280
Debug: 3726 62373 gdb_server.c:391 gdb_log_outgoing_packet(): [stm32h7x.cpu0] sending packet: $b4950708000000617b060000ffffffff98b2002485da09087b06000000000000a8b20024b7de0908efbeadde0000000000000000000000000000000000000000#1c
Debug: 3727 62373 gdb_server.c:375 gdb_log_incoming_packet(): [stm32h7x.cpu0] received packet: m80795b8,2
Debug: 3728 62373 gdb_server.c:1521 gdb_read_memory_packet(): addr: 0x00000000080795b8, len: 0x00000002
Debug: 3729 62373 target.c:2447 target_read_buffer(): reading buffer of 2 byte at 0x080795b8
Debug: 3730 62374 gdb_server.c:391 gdb_log_outgoing_packet(): [stm32h7x.cpu0] sending packet: $0346#cd
Debug: 3731 62374 gdb_server.c:375 gdb_log_incoming_packet(): [stm32h7x.cpu0] received packet: Z1,80795b8,2
Debug: 3732 62374 gdb_server.c:1750 gdb_breakpoint_watchpoint_packet(): [stm32h7x.cpu0]
Debug: 3733 62374 target.c:2688 target_write_u32(): address: 0xe0002010, value: 0x080795b9
Debug: 3734 62374 cortex_m.c:1994 cortex_m_set_breakpoint(): [stm32h7x.cpu0] fpc_num 2 fpcr_value 0x80795b9
Debug: 3735 62374 cortex_m.c:2030 cortex_m_set_breakpoint(): [stm32h7x.cpu0] BPID: 49, Type: 0, Address: 0x080795b8 Length: 2 (n=2)
Debug: 3736 62374 breakpoints.c:88 breakpoint_add_internal(): [0] added hardware breakpoint at 0x080795b8 of length 0x00000002, (BPID: 49)
Debug: 3737 62374 gdb_server.c:391 gdb_log_outgoing_packet(): [stm32h7x.cpu0] sending packet: $OK#9a
Debug: 3738 62375 gdb_server.c:375 gdb_log_incoming_packet(): [stm32h7x.cpu0] received packet: vCont;c
Debug: 3739 62375 gdb_server.c:3049 gdb_handle_vcont_packet(): target stm32h7x.cpu0 continue
Debug: 3740 62375 target.c:1815 target_call_event_callbacks(): target event 3 (resume-start) for core stm32h7x.cpu0
Debug: 3741 62375 target.c:2171 target_free_all_working_areas_restore(): freeing all working areas
Debug: 3742 62375 armv7m.c:174 armv7m_restore_context():  
Debug: 3743 62375 target.c:1815 target_call_event_callbacks(): target event 2 (resumed) for core stm32h7x.cpu0
Debug: 3744 62375 cortex_m.c:1392 cortex_m_resume(): [stm32h7x.cpu0] resumed at 0x0807b938
Debug: 3745 62376 target.c:1815 target_call_event_callbacks(): target event 4 (resume-end) for core stm32h7x.cpu0
Debug: 3746 62376 target.c:1815 target_call_event_callbacks(): target event 7 (gdb-start) for core stm32h7x.cpu0
Debug: 3747 62402 cortex_m.c:803 cortex_m_debug_entry(): [stm32h7x.cpu0]  
Debug: 3748 62403 cortex_m.c:544 cortex_m_clear_halt(): [stm32h7x.cpu0] NVIC_DFSR 0x3
Debug: 3749 62413 cortex_m.c:346 cortex_m_fast_read_all_regs(): [stm32h7x.cpu0] read 53 32-bit registers
Debug: 3750 62413 cortex_m.c:873 cortex_m_debug_entry(): [stm32h7x.cpu0] entered debug state in core mode: Thread at PC 0x80795b8, cpu in Non-Secure state, target->state: halted
Debug: 3751 62413 target.c:1815 target_call_event_callbacks(): target event 0 (gdb-halt) for core stm32h7x.cpu0
Debug: 3752 62413 gdb_server.c:148 gdb_last_signal(): [stm32h7x.cpu0] Debug reason is: BREAKPOINT
Debug: 3753 62413 gdb_server.c:391 gdb_log_outgoing_packet(): [stm32h7x.cpu0] sending packet: $T05#b9
Debug: 3754 62413 target.c:1815 target_call_event_callbacks(): target event 1 (halted) for core stm32h7x.cpu0
Debug: 3755 62413 target.c:1815 target_call_event_callbacks(): target event 8 (gdb-end) for core stm32h7x.cpu0
Debug: 3756 62413 target.c:2447 target_read_buffer(): reading buffer of 24 byte at 0x20000018
Debug: 3757 62414 gdb_server.c:375 gdb_log_incoming_packet(): [stm32h7x.cpu0] received packet: g
Debug: 3758 62414 gdb_server.c:391 gdb_log_outgoing_packet(): [stm32h7x.cpu0] sending packet: $01000000a92000200100000001000000efbeaddeefbeaddeefbeadde88b20024efbeaddeefbeaddeefbeaddeefbeadde88b2002488b20024ffb80708b895070800000001#0c
Debug: 3759 62414 gdb_server.c:375 gdb_log_incoming_packet(): [stm32h7x.cpu0] received packet: m80795b8,4
Debug: 3760 62415 gdb_server.c:1521 gdb_read_memory_packet(): addr: 0x00000000080795b8, len: 0x00000004
Debug: 3761 62415 target.c:2447 target_read_buffer(): reading buffer of 4 byte at 0x080795b8
Debug: 3762 62415 gdb_server.c:391 gdb_log_outgoing_packet(): [stm32h7x.cpu0] sending packet: $0346fb70#fc
Debug: 3763 62416 gdb_server.c:375 gdb_log_incoming_packet(): [stm32h7x.cpu0] received packet: m2400b280,40
Debug: 3764 62416 gdb_server.c:1521 gdb_read_memory_packet(): addr: 0x000000002400b280, len: 0x00000040
Debug: 3765 62416 target.c:2447 target_read_buffer(): reading buffer of 64 byte at 0x2400b280
Debug: 3766 62417 gdb_server.c:391 gdb_log_outgoing_packet(): [stm32h7x.cpu0] sending packet: $88b20024b9950708ff060000ffffffff98b2002485da09087b06000000000000a8b20024b7de0908efbeadde0000000000000000000000000000000000000000#97
Debug: 3767 62418 gdb_server.c:375 gdb_log_incoming_packet(): [stm32h7x.cpu0] received packet: z1,80795b8,2
Debug: 3768 62418 gdb_server.c:1750 gdb_breakpoint_watchpoint_packet(): [stm32h7x.cpu0]
Debug: 3769 62418 cortex_m.c:2051 cortex_m_unset_breakpoint(): [stm32h7x.cpu0] BPID: 49, Type: 0, Address: 0x080795b8 Length: 2 (n=2)
Debug: 3770 62418 target.c:2688 target_write_u32(): address: 0xe0002010, value: 0x00000000
Debug: 3771 62418 breakpoints.c:296 breakpoint_free(): free BPID: 49 --> 0
Debug: 3772 62418 gdb_server.c:391 gdb_log_outgoing_packet(): [stm32h7x.cpu0] sending packet: $OK#9a
Debug: 3773 62419 gdb_server.c:375 gdb_log_incoming_packet(): [stm32h7x.cpu0] received packet: vCont;s:0;c
Debug: 3774 62419 gdb_server.c:3137 gdb_handle_vcont_packet(): target stm32h7x.cpu0 single-step thread 0
Debug: 3775 62419 target.c:1815 target_call_event_callbacks(): target event 7 (gdb-start) for core stm32h7x.cpu0
Debug: 3776 62419 target.c:1815 target_call_event_callbacks(): target event 5 (step-start) for core stm32h7x.cpu0
Debug: 3777 62420 target.c:2624 target_read_u16(): address: 0x080795b8, value: 0x4603
Debug: 3778 62420 armv7m.c:174 armv7m_restore_context():  
Debug: 3779 62420 target.c:1815 target_call_event_callbacks(): target event 2 (resumed) for core stm32h7x.cpu0
Debug: 3780 62420 target.c:2688 target_write_u32(): address: 0xe0002010, value: 0x080795b9
Debug: 3781 62420 cortex_m.c:1994 cortex_m_set_breakpoint(): [stm32h7x.cpu0] fpc_num 2 fpcr_value 0x80795b9
Debug: 3782 62420 cortex_m.c:2030 cortex_m_set_breakpoint(): [stm32h7x.cpu0] BPID: 50, Type: 0, Address: 0x080795b8 Length: 2 (n=2)
Debug: 3783 62420 breakpoints.c:88 breakpoint_add_internal(): [0] added hardware breakpoint at 0x080795b8 of length 0x00000002, (BPID: 50)
Debug: 3784 62420 cortex_m.c:1520 cortex_m_step(): [stm32h7x.cpu0] Starting core to serve pending interrupts
Debug: 3785 62421 cortex_m.c:2051 cortex_m_unset_breakpoint(): [stm32h7x.cpu0] BPID: 50, Type: 0, Address: 0x080795b8 Length: 2 (n=2)
Debug: 3786 62421 target.c:2688 target_write_u32(): address: 0xe0002010, value: 0x00000000
Debug: 3787 62422 breakpoints.c:296 breakpoint_free(): free BPID: 50 --> 0
Debug: 3788 62424 cortex_m.c:1579 cortex_m_step(): [stm32h7x.cpu0] target stepped dcb_dhcsr = 0x1030007 nvic_icsr = 0x0
Debug: 3789 62424 cortex_m.c:803 cortex_m_debug_entry(): [stm32h7x.cpu0]  
Debug: 3790 62425 cortex_m.c:544 cortex_m_clear_halt(): [stm32h7x.cpu0] NVIC_DFSR 0x3
Debug: 3791 62436 cortex_m.c:346 cortex_m_fast_read_all_regs(): [stm32h7x.cpu0] read 53 32-bit registers
Debug: 3792 62436 cortex_m.c:873 cortex_m_debug_entry(): [stm32h7x.cpu0] entered debug state in core mode: Thread at PC 0x80795ba, cpu in Non-Secure state, target->state: halted
Debug: 3793 62436 target.c:1815 target_call_event_callbacks(): target event 0 (gdb-halt) for core stm32h7x.cpu0
Debug: 3794 62436 target.c:1815 target_call_event_callbacks(): target event 1 (halted) for core stm32h7x.cpu0
Debug: 3795 62436 target.c:1815 target_call_event_callbacks(): target event 8 (gdb-end) for core stm32h7x.cpu0
Debug: 3796 62436 cortex_m.c:1588 cortex_m_step(): [stm32h7x.cpu0] target stepped dcb_dhcsr = 0x30003 nvic_icsr = 0x0
Debug: 3797 62436 target.c:1815 target_call_event_callbacks(): target event 6 (step-end) for core stm32h7x.cpu0
Debug: 3798 62437 gdb_server.c:148 gdb_last_signal(): [stm32h7x.cpu0] Debug reason is: SINGLESTEP
Debug: 3799 62437 gdb_server.c:391 gdb_log_outgoing_packet(): [stm32h7x.cpu0] sending packet: $T05#b9
Debug: 3800 62437 gdb_server.c:375 gdb_log_incoming_packet(): [stm32h7x.cpu0] received packet: g
Debug: 3801 62437 gdb_server.c:391 gdb_log_outgoing_packet(): [stm32h7x.cpu0] sending packet: $01000000a92000200100000001000000efbeaddeefbeaddeefbeadde88b20024efbeaddeefbeaddeefbeaddeefbeadde88b2002488b20024ffb80708ba95070800000001#35
Debug: 3802 62438 gdb_server.c:375 gdb_log_incoming_packet(): [stm32h7x.cpu0] received packet: m80795ba,4
Debug: 3803 62438 gdb_server.c:1521 gdb_read_memory_packet(): addr: 0x00000000080795ba, len: 0x00000004
Debug: 3804 62438 target.c:2447 target_read_buffer(): reading buffer of 4 byte at 0x080795ba
Debug: 3805 62439 gdb_server.c:391 gdb_log_outgoing_packet(): [stm32h7x.cpu0] sending packet: $fb70fb78#66
Debug: 3806 62439 gdb_server.c:375 gdb_log_incoming_packet(): [stm32h7x.cpu0] received packet: m2400b280,40
Debug: 3807 62439 gdb_server.c:1521 gdb_read_memory_packet(): addr: 0x000000002400b280, len: 0x00000040
Debug: 3808 62439 target.c:2447 target_read_buffer(): reading buffer of 64 byte at 0x2400b280
Debug: 3809 62440 gdb_server.c:391 gdb_log_outgoing_packet(): [stm32h7x.cpu0] sending packet: $b895070800000001ff060000ffffffff98b2002485da09087b06000000000000a8b20024b7de0908efbeadde0000000000000000000000000000000000000000#4d
Debug: 3810 62440 gdb_server.c:375 gdb_log_incoming_packet(): [stm32h7x.cpu0] received packet: vCont;s:0;c
Debug: 3811 62440 gdb_server.c:3137 gdb_handle_vcont_packet(): target stm32h7x.cpu0 single-step thread 0
Debug: 3812 62440 target.c:1815 target_call_event_callbacks(): target event 7 (gdb-start) for core stm32h7x.cpu0
Debug: 3813 62440 target.c:1815 target_call_event_callbacks(): target event 5 (step-start) for core stm32h7x.cpu0
Debug: 3814 62440 armv7m.c:174 armv7m_restore_context():  
Debug: 3815 62440 target.c:1815 target_call_event_callbacks(): target event 2 (resumed) for core stm32h7x.cpu0
Debug: 3816 62441 target.c:2688 target_write_u32(): address: 0xe0002010, value: 0x080795bb
Debug: 3817 62441 cortex_m.c:1994 cortex_m_set_breakpoint(): [stm32h7x.cpu0] fpc_num 2 fpcr_value 0x80795bb
Debug: 3818 62441 cortex_m.c:2030 cortex_m_set_breakpoint(): [stm32h7x.cpu0] BPID: 51, Type: 0, Address: 0x080795ba Length: 2 (n=2)
Debug: 3819 62441 breakpoints.c:88 breakpoint_add_internal(): [0] added hardware breakpoint at 0x080795ba of length 0x00000002, (BPID: 51)
Debug: 3820 62441 cortex_m.c:1520 cortex_m_step(): [stm32h7x.cpu0] Starting core to serve pending interrupts
Debug: 3821 62443 cortex_m.c:2051 cortex_m_unset_breakpoint(): [stm32h7x.cpu0] BPID: 51, Type: 0, Address: 0x080795ba Length: 2 (n=2)
Debug: 3822 62443 target.c:2688 target_write_u32(): address: 0xe0002010, value: 0x00000000
Debug: 3823 62443 breakpoints.c:296 breakpoint_free(): free BPID: 51 --> 0
Debug: 3824 62445 cortex_m.c:1579 cortex_m_step(): [stm32h7x.cpu0] target stepped dcb_dhcsr = 0x1030007 nvic_icsr = 0x0
Debug: 3825 62445 cortex_m.c:803 cortex_m_debug_entry(): [stm32h7x.cpu0]  
Debug: 3826 62445 cortex_m.c:544 cortex_m_clear_halt(): [stm32h7x.cpu0] NVIC_DFSR 0x3
Debug: 3827 62455 cortex_m.c:346 cortex_m_fast_read_all_regs(): [stm32h7x.cpu0] read 53 32-bit registers
Debug: 3828 62455 cortex_m.c:873 cortex_m_debug_entry(): [stm32h7x.cpu0] entered debug state in core mode: Thread at PC 0x80795bc, cpu in Non-Secure state, target->state: halted
Debug: 3829 62455 target.c:1815 target_call_event_callbacks(): target event 0 (gdb-halt) for core stm32h7x.cpu0
Debug: 3830 62455 target.c:1815 target_call_event_callbacks(): target event 1 (halted) for core stm32h7x.cpu0
Debug: 3831 62455 target.c:1815 target_call_event_callbacks(): target event 8 (gdb-end) for core stm32h7x.cpu0
Debug: 3832 62455 cortex_m.c:1588 cortex_m_step(): [stm32h7x.cpu0] target stepped dcb_dhcsr = 0x30003 nvic_icsr = 0x0
Debug: 3833 62455 target.c:1815 target_call_event_callbacks(): target event 6 (step-end) for core stm32h7x.cpu0
Debug: 3834 62456 gdb_server.c:148 gdb_last_signal(): [stm32h7x.cpu0] Debug reason is: SINGLESTEP
Debug: 3835 62456 gdb_server.c:391 gdb_log_outgoing_packet(): [stm32h7x.cpu0] sending packet: $T05#b9
Debug: 3836 62456 gdb_server.c:375 gdb_log_incoming_packet(): [stm32h7x.cpu0] received packet: g
Debug: 3837 62456 gdb_server.c:391 gdb_log_outgoing_packet(): [stm32h7x.cpu0] sending packet: $01000000a92000200100000001000000efbeaddeefbeaddeefbeadde88b20024efbeaddeefbeaddeefbeaddeefbeadde88b2002488b20024ffb80708bc95070800000001#37
Debug: 3838 62456 gdb_server.c:375 gdb_log_incoming_pac